# MHz S MA R 50
!   freq        S11              S21              S12              S22       
1000.000000  0.35313   68.81  1.30676 -171.29  0.82683 -171.68  0.50224  165.14
1020.000000  0.03019   73.19  2.52569  173.02  0.19639    1.13  0.02421   82.10
1040.000000  0.29300  115.60  0.58635 -126.25  3.80608 -122.13  0.22067   84.13
1060.000000  0.41660 -109.20  1.08500  -87.62  0.28564  -81.26  0.31338  -11.40
1080.000000  0.08329  156.31 158.18167 -163.03  0.41686  -77.79  0.02631   51.49
1100.000000  0.07265  -36.74  1.19439  168.48  0.38561  169.40  0.06357  147.73
1120.000000  0.50534 -107.56  0.77136 -150.12  0.33037 -125.63  0.35084  -98.75
1140.000000  0.53443   84.71  1.43769   38.49  1.61320   38.63  0.72667   98.88
1160.000000  0.16700  103.30  0.91226 -156.92  0.22759  165.32  0.12270   52.43
1180.000000  1.37055   56.06  0.71880   55.70  0.65009  -28.25  0.87580   62.39
1200.000000  0.97764   80.71  1.97616   71.76 41.93311  113.58  1.15989   85.92
1220.000000  0.58339  104.26  3.08580   43.07  1.31014   22.07  0.26598   88.42
1240.000000  0.61257 -177.26  1.19429  -79.87  0.36962   41.08  1.25685 -106.06
1260.000000  0.01745 -169.16  1.28046   11.71  0.59373 -101.68  0.99491  -76.70
1280.000000  0.12527 -177.31  0.92069   79.68  0.53209  -59.83  1.20408  -70.17
1300.000000  7.62928  -59.48  0.36631 -108.28  1.41217  -14.07  2.37071   -7.07
1320.000000  1.42620   62.71  0.76054 -116.61  5.93523   89.19  1.32210  103.63
1340.000000  0.20000  127.50  0.41231 -121.44  0.74567    9.79  0.51895   87.93
1360.000000  0.25686 -112.94 138.55488   78.74  8.70593  164.51  0.27263 -114.86
1380.000000  1.23878   94.69  1.16355  167.74  1.02147  176.46  1.34230  163.58
1400.000000  0.58126 -129.19  0.92586 -130.38  5.52209  -10.68  0.72836 -111.05
1420.000000  0.12651   96.45  2.07647 -165.26  5.54259    8.36  0.36920   88.61
1440.000000  0.41470   63.99  0.29253 -128.75  0.70413  -99.32  0.58299   78.92
1460.000000  1.25285   57.89  0.80764  -44.62  0.94418   38.61  0.61742   72.24
1480.000000  0.24547  -81.62  1.61175 -142.49  1.11006   47.02  0.32758  -64.77
1500.000000  0.79038  -64.85  0.89414  -96.66 222.59735  -86.15  1.18354  -81.47
1520.000000  0.79468   45.83  6.40708   -4.96  1.22489   20.95  2.07388  120.66
1540.000000  1.08922  -32.02  1.77110   50.92  6.58249   56.56  0.76495  -72.85
1560.000000  1.30972 -179.82  2.62527  111.98  0.33902 -149.46  0.64039  139.43
1580.000000  1.09018  -93.18  4.00914 -104.65 10.25704   26.78  0.78373  -86.40
1600.000000  0.19215   32.25  0.81708  163.55  1.22543  158.37  1.49336 -132.82
1620.000000  2.18414   93.63  1.71498   90.12  1.66076   20.00  0.73807  103.69
1640.000000  0.36940  124.67  0.90964  109.96  3.16953  150.13  1.09707  120.74
1660.000000  0.78494 -118.08  2.35915  -39.99  0.60067  -66.18  0.57250 -137.42
1680.000000  0.83984  144.43  1.44772   95.98  1.01004   99.53  0.61502  100.47
1700.000000  0.14155  120.39  1.88555  148.48  1.93802   47.11  0.22860  131.54
1720.000000  1.07883  159.29  0.51041  175.68 121.92449   69.83  9.01971  -98.60
1740.000000  0.70406   71.08  1.32409  152.54  5.54855   39.88  0.63104   86.14
1760.000000  0.62777  -85.98  2.75132   28.64 171.64120  150.61  1.21180  -77.34
1780.000000  2.11228  104.27  1.57157  -36.94  0.99410   39.88  0.61172   74.33
1800.000000  1.16837   89.13  2.28534  -56.53  1.41650  -94.87  0.82458   45.22
1820.000000  0.45132   84.04  2.83626   52.24  1.15819 -128.64  0.21120   76.44
1840.000000  0.55505  145.81  0.77739   -9.11  1.00933   19.47  0.93477  157.89
1860.000000  1.08912   79.94  2.42252  140.12  8.91327 -128.44  1.90818   65.38
1880.000000  0.56654 -105.09  0.94039   10.82  0.86012  -32.38  0.75177  127.70
1900.000000  1.89636  -44.88  1.41116   88.23  1.62255  110.64  4.02575  -65.51
1920.000000  1.50408 -130.30  1.77873  -30.30  0.97951  -25.02  1.38089  -26.39
1940.000000  0.39176   69.85  1.20721  -64.86  0.54221  -69.19  0.21193 -122.74
1960.000000  0.67092   66.19  0.93338   40.39  0.96481   49.22  1.46933  166.17
1980.000000  1.19460 -102.93 273.61640  159.74  5.97939  -95.88  0.89969 -102.95
2000.000000  0.36113  160.12  0.95093   48.49  1.01163   67.00  1.07859  155.73
2020.000000  0.32498  137.12  2.27777    7.02  1.40335  128.66  2.01834  105.39
2040.000000  1.06204   90.86  4.55842  -36.32  1.64827  150.87  0.85820   43.00
2060.000000  1.91188  -51.65  9.42683  -15.77 231.09726 -127.17  2.55243  -60.99
2080.000000  0.57139   47.21  1.14135   75.38  0.91336   76.84  2.07863 -176.01
2100.000000  1.08284   77.31 324.75656  124.34  8.07108  -19.99  0.99953   86.84
2120.000000  0.67613  -60.75 10.33178  -25.68 12.82170  137.91  0.83765  -61.00
2140.000000  1.12658  -44.84  2.03283   65.34  0.91234   34.69  0.39408 -103.57
2160.000000  0.36899 -129.72  1.06371  115.66  2.12653  118.37  2.66619   97.49
2180.000000  3.03389  -10.56  0.92290   32.29  2.72214   31.73  2.70619  133.16
2200.000000  0.75687  123.17  5.79964   28.90  1.90330   -9.55  0.93070   55.18
2220.000000  1.35267 -148.79  2.58507    5.57  4.33042   21.06  0.86895 -119.99
2240.000000  0.48928 -116.54  2.49517   46.91  4.06328   42.00  0.30046 -115.13
2260.000000  4.24719 -162.51  6.13221  -83.75  4.08484 -137.15  3.20698  -92.96
2280.000000  1.23081  143.50  3.54599  134.25  2.21453  118.58  0.67014  116.42
2300.000000  0.12482  -90.40  2.80320  169.23  3.08353  -44.35  0.21492  -69.50
2320.000000  0.98784   77.30 17.32603 -137.73  3.88611   75.11  1.20216   93.29
2340.000000  1.21597   63.16  4.79116   75.47 14.24650 -109.74  1.11337   77.82
2360.000000  0.60768   90.33  5.13936  -39.98 22.82241  -55.15  0.99594   72.33
2380.000000  0.70429   91.17  5.27040  -59.44  5.91985   87.79  2.48869  157.31
2400.000000  1.07844   41.25  9.54900  -69.56 14.87370  154.61  1.33371   46.92
2420.000000  1.33305   59.07 447.74777  176.92  2.07016  155.32  0.97329   98.65
2440.000000  0.11812  -97.08  3.60177   86.17  7.98022  132.13  0.13605  -86.10
2460.000000  1.20772  132.64  5.44414 -122.49  2.71229   86.08  1.50266  100.95
2480.000000  0.14023 -148.74  2.45454  143.06 25.41952   44.76  0.29875 -145.45
2500.000000  0.17528  171.99  2.08787  116.38  2.80385  153.29  0.51104  166.95
2520.000000  0.56481  131.03  6.29696  146.24  1.68445  162.38  2.09936  -97.29
2540.000000  0.19480   95.82  1.04155   30.25  1.29163   75.53  0.19426  130.80
2560.000000  0.87724  139.09  2.41299   21.52  3.36838   21.57  1.78843  -98.75
2580.000000  0.44638   82.21 16.00006  147.63  1.91462  131.93  1.61686   89.12
2600.000000  0.79478  126.41  4.65906  -38.64  5.26813  -68.55  1.37434  108.77
2620.000000  3.02629   26.59  3.68550   24.11  6.83503 -168.63  5.89852  109.70
2640.000000  0.57007    4.86  1.99778   41.91 451.06463  -86.57  0.89021   31.65
2660.000000  0.57703  -82.83  1.99707 -141.37  2.42912  -74.47  1.00356   44.23
2680.000000  0.18666  -26.08  3.99973  152.42  7.42568 -176.39  0.16059    2.03
2700.000000  2.26393   62.66  3.42174  -19.48 483.90118   31.81  1.15668   85.27
2720.000000  0.49293 -100.64  3.84063 -136.41 462.85518  121.62  1.22651   61.20
2740.000000  2.99826    2.01 15.90544   92.76 20.39676   63.64  4.81148   59.38
2760.000000  1.22905  178.13 20.80255  172.69  2.60587   68.97  1.45744  170.07
2780.000000  0.31751  121.02  2.36505  -52.00  2.33830  166.63  0.18150  110.73
2800.000000  2.15853  175.85  2.34170   -2.79 34.96595  121.71  1.19632  146.40
2820.000000  0.44430  166.55  2.99895  -70.56  2.85538  134.88  0.35175  170.12
2840.000000  2.72788    5.86  3.96971   53.07 11.19364 -136.33  1.04991 -122.79
2860.000000  1.06993  165.54  1.52516 -116.56 18.61549 -111.04  1.04159  129.22
2880.000000  0.12075   74.43  2.67312  102.29  6.96684   44.93  0.24534   66.29
2900.000000  1.12648   58.36 20.62465 -164.02  4.00305 -139.62  0.80836   59.77
2920.000000  0.63277   -2.39  3.32811  -57.90 14.07171  130.14  0.42325  -30.14
2940.000000  0.81231    3.08 51.24815  152.60 21.74187    2.14  0.81119    2.65
2960.000000  0.40152   43.68  6.53245  138.05 11.62470    5.28  0.38043   32.59
2980.000000  1.42342   92.81 16.75958  138.23  5.74724  154.83  1.42396   92.72
3000.000000  4.39607  105.93  3.85500 -123.73 16.26950 -113.27  2.20990  -66.23
