# MHz S MA R 50
!   freq        S11       
1000.000000  0.26200   58.88
1020.000000  0.02208   75.20
1040.000000  0.35084    7.37
1060.000000  0.47360  178.55
1080.000000  0.48188 -103.82
1100.000000  0.06789   81.85
1120.000000  0.38430 -132.43
1140.000000  0.73484  146.63
1160.000000  0.39828  133.93
1180.000000  2.50076 -152.05
1200.000000  0.77779  131.14
1220.000000  0.30774   -4.36
1240.000000  1.46583   28.20
1260.000000  0.29469 -111.04
1280.000000  0.44855 -138.17
1300.000000  0.79825  172.28
1320.000000  0.79041   -1.33
1340.000000  0.22450   71.34
1360.000000  0.13662 -133.26
1380.000000  0.50797  115.16
1400.000000  1.83282  131.08
1420.000000  0.17745   24.30
1440.000000  0.91895  -10.97
1460.000000  0.38855   84.08
1480.000000  0.20037 -142.08
1500.000000  0.90020  -19.82
1520.000000  0.45359   36.62
1540.000000  0.71440  -24.86
1560.000000  0.56510   70.12
1580.000000  0.55494  -48.66
1600.000000  0.24843 -136.13
1620.000000  2.12378  -96.70
1640.000000  0.95242   -7.29
1660.000000  1.39741  138.47
1680.000000  3.13855 -123.74
1700.000000  0.11181   72.10
1720.000000  1.08763  -70.73
1740.000000  3.20212 -152.47
1760.000000  0.51934 -127.74
1780.000000  1.18634  -82.80
1800.000000  0.39411   31.03
1820.000000  0.20229   45.16
1840.000000  1.40110   92.25
1860.000000  1.10515  176.21
1880.000000  0.51076 -161.24
1900.000000  0.92671   -2.61
1920.000000  0.97423  153.53
1940.000000  0.20516   46.53
1960.000000  0.66910   47.02
1980.000000  0.56916 -110.42
2000.000000  0.41354   36.42
2020.000000  1.02483  134.53
2040.000000  0.39751    6.77
2060.000000  0.78550  -23.61
2080.000000  0.84656   55.85
2100.000000  0.46062   -5.65
2120.000000  2.54997   39.46
2140.000000  0.78724  177.48
2160.000000  0.67904   -8.44
2180.000000  0.78179   36.86
2200.000000  0.87569   -8.71
2220.000000  0.53797 -158.41
2240.000000  0.10774 -152.30
2260.000000  0.61618  116.78
2280.000000  0.16730   96.43
2300.000000  0.08664  -25.68
2320.000000  0.07705 -151.22
2340.000000  0.18175   68.46
2360.000000  0.26875  -77.70
2380.000000  0.26722  -21.15
2400.000000  0.70319   96.16
2420.000000  0.65477   89.01
2440.000000  0.09683 -162.30
2460.000000  0.81252  113.52
2480.000000  0.15525 -137.88
2500.000000  0.23844  100.10
2520.000000  0.42505  135.39
2540.000000  0.20398   74.72
2560.000000  0.56983 -127.37
2580.000000  0.12513   74.75
2600.000000  0.80504  130.55
2620.000000  1.35187 -174.06
2640.000000  0.50687   -8.63
2660.000000  0.22847  -49.53
2680.000000  0.59522  -82.68
2700.000000  0.42623   66.69
2720.000000  0.47768   22.07
2740.000000  1.35035   32.60
2760.000000  1.08862  125.50
2780.000000  0.57086   29.47
2800.000000  0.47237  167.72
2820.000000  0.02579  150.54
2840.000000  1.34247   16.06
2860.000000  0.73589  120.62
2880.000000  0.16644  -39.46
2900.000000  0.69433   11.04
2920.000000  0.59967  -27.41
2940.000000  0.83045  -22.53
2960.000000  0.22254   33.23
2980.000000  0.73578  -47.21
3000.000000  1.87638    0.32
