# MHz S MA R 50
!   freq        S11       
1000.000000  1.10305   61.57
1010.000000  1.00909  164.90
1020.000000  0.58515  142.78
1030.000000  1.04392  -21.05
1040.000000  1.15380   84.18
1050.000000  0.15890 -159.39
1060.000000  0.54105   54.49
1070.000000  0.08790 -108.52
1080.000000  0.11080  -61.17
1090.000000  0.73715  137.17
1100.000000  1.20489  -53.61
1110.000000  1.02084  -21.76
1120.000000  0.06555   24.96
1130.000000  0.47654 -151.74
1140.000000  1.20688  -24.04
1150.000000  1.37253   91.45
1160.000000  1.05083  162.28
1170.000000  1.28538 -129.66
1180.000000  1.08173  -25.74
1190.000000  0.10686 -118.92
1200.000000  0.31384   80.57
1210.000000  0.20740 -109.30
1220.000000  1.00403  -25.72
1230.000000  0.94754  -24.51
1240.000000  0.68709   27.07
1250.000000  1.35912   10.73
1260.000000  0.36039   86.75
1270.000000  0.57109 -140.55
1280.000000  0.02908   81.98
1290.000000  0.49764 -146.36
1300.000000  1.17598  -24.15
1310.000000  1.47523  133.92
1320.000000  0.23860   72.28
1330.000000  0.14990 -105.11
1340.000000  0.03266   52.90
1350.000000  0.17738  -75.79
1360.000000  0.38936  -99.56
1370.000000  0.49526   93.27
1380.000000  0.95834  -25.49
1390.000000  1.00540  -18.87
1400.000000  0.63430 -113.86
1410.000000  0.13422  -70.70
1420.000000  0.03182   64.08
1430.000000  1.35067   84.30
1440.000000  0.33694   85.31
1450.000000  0.55941   82.71
1460.000000  0.29571  -93.53
1470.000000  1.01123   60.19
1480.000000  1.02414  158.49
1490.000000  0.36343  106.68
1500.000000  0.51660 -157.69
1510.000000  1.19704  -70.41
1520.000000  1.89070 -113.61
1530.000000  0.34132   88.47
1540.000000  0.02639   47.63
1550.000000  0.99540  157.65
1560.000000  0.95084  -27.06
1570.000000  0.60576   -0.65
1580.000000  0.84445  164.95
1590.000000  0.09154 -103.14
1600.000000  0.03250   45.57
1610.000000  1.23364 -140.52
1620.000000  0.29288   98.95
1630.000000  0.96702   46.01
1640.000000  1.01838  153.99
1650.000000  0.12312  -51.88
1660.000000  0.61489 -147.85
1670.000000  0.38004   96.72
1680.000000  0.94266  -31.51
1690.000000  0.60070  100.41
1700.000000  0.62589   10.93
1710.000000  0.98661   53.65
1720.000000  0.39777  115.47
1730.000000  0.76973  179.63
1740.000000  1.11511  -34.67
1750.000000  0.02941   52.61
1760.000000  0.71876   94.04
1770.000000  0.96120 -128.84
1780.000000  1.08155  -35.11
1790.000000  0.13963   91.48
1800.000000  0.30539   57.38
1810.000000  0.44547  101.55
1820.000000  0.02194   26.09
1830.000000  0.11252  -76.99
1840.000000  0.91478   79.56
1850.000000  1.23000    3.98
1860.000000  0.33339   68.27
1870.000000  1.31446   29.17
1880.000000  0.36452 -172.77
1890.000000  0.68200 -163.88
1900.000000  0.03031   77.57
1910.000000  0.95230  -30.54
1920.000000  0.93690  -31.24
1930.000000  0.89005  -31.59
1940.000000  0.03342   18.22
1950.000000  0.23676   50.05
1960.000000  0.02436   70.05
1970.000000  0.28339 -130.73
1980.000000  0.33364   95.10
1990.000000  0.33305   93.60
2000.000000  0.97655  -35.01
