# MHz S MA R 50
!   freq        S11              S21              S12              S22       
1000.000000  0.29095  -13.85  0.00000  180.00  0.00000  180.00  0.35260  -13.92
1020.000000  1.01476  165.09  0.00000    0.00  0.00000    0.00  0.96951  165.79
1040.000000  1.41990  -24.22  0.00000   -0.00  0.00000  180.00  0.45255  169.09
1060.000000  0.69076  -15.44  0.00000    0.00  0.00000  180.00  1.45812  -12.84
1080.000000  1.23574  162.99  0.00000    0.00  0.00000  180.00  1.07873  164.36
1100.000000  0.02547  163.74  0.00000    0.00  0.00000    0.00  0.12178  163.10
1120.000000  1.01589  164.13  0.00000   -0.00  0.00000   -0.00  1.10503  163.93
1140.000000 13.39438   25.43  0.00000    0.00  0.00000   -0.00  0.45141  -14.99
1160.000000  0.62253  165.67  0.00000   -0.00  0.00000  180.00  4.66074  -68.47
1180.000000  0.16047   -4.81  0.00000   -0.00  0.00000   -0.00  0.52069   -9.49
1200.000000  0.97961  163.15  0.00000    0.00  0.00000    0.00  0.99191  163.11
1220.000000  0.46657  -17.72  0.00000   -0.00  0.00000   -0.00  0.40469  -17.93
1240.000000  0.21460  153.29  0.00000   -0.00  0.00000   -0.00  0.02944   37.41
1260.000000  0.98978  162.12  0.00000    0.00  0.00000    0.00  0.95879  162.69
1280.000000  0.82126  -20.05  0.00000  180.00  0.00000  180.00  0.85249  -20.35
1300.000000  0.25099  -12.74  0.00000   -0.00  0.00000  180.00  0.18049  122.29
1320.000000  1.07587  159.31  0.00000    0.00  0.00000    0.00  1.11858  157.22
1340.000000  0.09470  -46.59  0.00000    0.00  0.00000  180.00  0.23292  162.59
1360.000000  0.30301  -16.22  0.00000  180.00  0.00000    0.00  0.31648  160.10
1380.000000  1.01713  160.43  0.00000    0.00  0.00000   -0.00  2.24233  175.73
1400.000000  0.51149  165.11  0.00000    0.00  0.00000  180.00  0.50400  165.27
1420.000000  0.02267  -30.15  0.00000   -0.00  0.00000  180.00  0.33784 -123.11
1440.000000  0.73268  -18.35  0.00000    0.00  0.00000  180.00  0.08115  117.05
1460.000000  0.72448  -20.07  0.00000  180.00  0.00000    0.00  0.99580  149.61
1480.000000  1.03457  158.95  0.00000   -0.00  0.00000    0.00  1.13824  158.38
1500.000000  1.00724  158.76  0.00000    0.00  0.00000    0.00  1.01237  158.74
1520.000000  0.97582  -23.88  0.00000   -0.00  0.00000    0.00  0.93590  -23.84
1540.000000  0.14679   13.12  0.00000    0.00  0.00000   -0.00  0.14386   99.54
1560.000000  0.98335   -2.87  0.00000    0.00  0.00000   -0.00  0.07652  120.35
1580.000000  0.57743   10.95  0.00000    0.00  0.00000    0.00  2.51398   88.95
1600.000000  0.83781  -19.98  0.00000   -0.00  0.00000    0.00  3.79768    7.70
1620.000000  0.16218  -33.69  0.00000    0.00  0.00000   -0.00  2.74309  -41.71
1640.000000  0.54181  163.33  0.00000   -0.00  0.00000   -0.00  1.11536   79.50
1660.000000  0.33980  161.20  0.00000    0.00  0.00000  180.00  0.93631  -30.50
1680.000000  0.95931  157.16  0.00000  180.00  0.00000  180.00  0.96809  157.05
1700.000000  0.53324  166.00  0.00000    0.00  0.00000    0.00  0.58646  163.70
1720.000000  0.50416  164.47  0.00000   -0.00  0.00000   -0.00  0.59005  161.96
1740.000000  0.92895  156.35  0.00000  180.00  0.00000  180.00  0.82548  157.82
1760.000000  0.51862  161.13  0.00000   -0.00  0.00000   -0.00  0.51231  161.26
1780.000000  0.05880  150.83  0.00000  180.00  0.00000    0.00  0.02859  -17.62
1800.000000  0.92027  155.67  0.00000  180.00  0.00000  180.00  0.93679  155.68
1820.000000  0.92121  153.78  0.00000  180.00  0.00000   -0.00  1.11404  150.68
1840.000000  0.55528  146.62  0.00000  180.00  0.00000    0.00  0.12321  129.88
1860.000000  0.88024  154.43  0.00000    0.00  0.00000  180.00  0.97550  153.48
1880.000000  1.02742  -29.85  0.00000   -0.00  0.00000  180.00  1.30510  -32.26
1900.000000  0.21207  -22.87  0.00000    0.00  0.00000    0.00  0.45611  -25.32
1920.000000  0.99089  153.32  0.00000  180.00  0.00000  180.00  0.99658  153.10
1940.000000  1.03910  152.33  0.00000  180.00  0.00000  180.00  1.01887  152.59
1960.000000  3.19903  -69.27  0.00000  180.00  0.00000   -0.00  1.00896  158.48
1980.000000  0.23567  -36.86  0.00000    0.00  0.00000   -0.00  0.17182  -39.61
2000.000000  1.61198  141.00  0.00000    0.00  0.00000  180.00  0.98847  -25.00
2020.000000  1.15767  150.54  0.00000   -0.00  0.00000   -0.00  1.19298  150.59
2040.000000  0.72442  144.32  0.00000    0.00  0.00000    0.00  2.16190  144.65
2060.000000  1.40844  -33.96  0.00000    0.00  0.00000   -0.00  0.54866  -50.64
2080.000000  0.97802  150.58  0.00000    0.00  0.00000    0.00  1.00554  150.56
2100.000000  0.14890  -18.72  0.00000  180.00  0.00000  180.00  0.09552  -12.84
2120.000000  0.51422  172.27  0.00000    0.00  0.00000    0.00  0.24527  177.05
2140.000000  0.45509  152.54  0.00000    0.00  0.00000    0.00  0.55809  155.26
2160.000000  0.09978  -22.24  0.00000  180.00  0.00000    0.00  1.43949  -18.62
2180.000000  0.77865  145.36  0.00000   -0.00  0.00000  180.00  2.12358  145.80
2200.000000  1.24710  139.32  0.00000  180.00  0.00000    0.00  1.00083  148.88
2220.000000  1.02483  148.03  0.00000    0.00  0.00000   -0.00  0.66092  136.30
2240.000000  0.17715  -59.66  0.00000  180.00  0.00000    0.00  0.52618  164.38
2260.000000  0.19038  119.07  0.00000   -0.00  0.00000   -0.00  0.25533  123.55
2280.000000  0.91636  147.60  0.00000  180.00  0.00000  180.00  0.92495  147.24
2300.000000  0.93250   57.30  0.00000    0.00  0.00000  180.00  0.94311  102.66
2320.000000  0.25254   61.68  0.00000    0.00  0.00000    0.00  0.35529   57.47
2340.000000  0.93557  145.11  0.00000    0.00  0.00000   -0.00  0.90295  145.51
2360.000000  1.98350   22.59  0.00000    0.00  0.00000    0.00  1.90835    9.92
2380.000000  0.74441  -38.33  0.00000  180.00  0.00000    0.00  0.87809  -41.80
2400.000000  0.90306  146.16  0.00000    0.00  0.00000    0.00  0.91233  146.16
2420.000000  0.98607  145.69  0.00000    0.00  0.00000    0.00  0.99575  145.52
2440.000000  1.10706  143.74  0.00000  180.00  0.00000    0.00  1.01299  144.06
2460.000000  1.35604  127.60  0.00000    0.00  0.00000    0.00  0.59928  113.14
2480.000000  0.12917  -47.92  0.00000    0.00  0.00000   -0.00  0.61841  151.32
2500.000000  0.66839  -36.81  0.00000    0.00  0.00000    0.00  0.84274  -37.21
2520.000000  0.91368  146.69  0.00000   -0.00  0.00000   -0.00  0.92377  146.47
2540.000000  6.92180  115.30  0.00000   -0.00  0.00000   -0.00 21.24314   73.41
2560.000000  0.50969  -45.72  0.00000    0.00  0.00000    0.00  0.66853  -47.89
2580.000000  0.05424  119.82  0.00000    0.00  0.00000    0.00  0.17690  132.92
2600.000000  0.06668  140.67  0.00000   -0.00  0.00000    0.00  0.85297  -39.19
2620.000000  0.84459  143.95  0.00000    0.00  0.00000  180.00  0.97420  143.31
2640.000000  0.93692  142.92  0.00000   -0.00  0.00000   -0.00  0.94868  143.00
2660.000000  1.43559  -45.55  0.00000   -0.00  0.00000    0.00  8.41418  -67.59
2680.000000  0.78020  -39.97  0.00000    0.00  0.00000    0.00  1.20044  -39.97
2700.000000  0.22342  -44.93  0.00000  180.00  0.00000    0.00 10.36104 -102.22
2720.000000  1.05935  141.15  0.00000    0.00  0.00000    0.00  1.07102  141.23
2740.000000  1.94065  164.46  0.00000  180.00  0.00000  180.00  3.43487  172.89
2760.000000  0.96278  140.80  0.00000  180.00  0.00000  180.00  0.97075  140.45
2780.000000  0.06956  -31.45  0.00000  180.00  0.00000    0.00  0.05257  -24.75
2800.000000  1.74687 -102.87  0.00000  180.00  0.00000    0.00  0.51210 -138.72
2820.000000  0.98734  124.78  0.00000    0.00  0.00000    0.00  1.02877  138.32
2840.000000  2.97949  140.94  0.00000  180.00  0.00000    0.00  1.09930  135.82
2860.000000  0.85361  -32.64  0.00000  180.00  0.00000  180.00  0.93473  -28.21
2880.000000  0.97167  148.62  0.00000  180.00  0.00000    0.00  0.96241  152.51
2900.000000  0.51886  142.70  0.00000  180.00  0.00000  180.00  0.50884  141.57
2920.000000  0.89945  143.64  0.00000    0.00  0.00000    0.00  0.92340  141.57
2940.000000  1.08911  140.23  0.00000    0.00  0.00000   -0.00  1.00039  139.50
2960.000000  1.15463  138.90  0.00000    0.00  0.00000    0.00  1.09616  138.82
2980.000000  1.14474  136.75  0.00000    0.00  0.00000    0.00  1.17545  136.12
3000.000000  0.96964  135.91  0.00000    0.00  0.00000    0.00  0.98003  134.88
