# MHz S MA R 50
!   freq        S11       
1000.000000  0.18681  155.80
1020.000000  1.00840  165.24
1040.000000  0.37201  -20.86
1060.000000  0.46761  138.60
1080.000000  0.92895  164.70
1100.000000  0.12375  163.12
1120.000000  0.91825  165.13
1140.000000  0.78078  -15.37
1160.000000  0.15492  168.17
1180.000000  0.38760  160.78
1200.000000  0.95310  163.29
1220.000000  0.25960  -17.48
1240.000000  0.34601  -12.87
1260.000000  0.96939  162.56
1280.000000  1.06248  -25.17
1300.000000  0.48398  -16.03
1320.000000  0.92214  161.09
1340.000000  0.35015  162.18
1360.000000  0.91921  159.49
1380.000000  1.05799  159.95
1400.000000  0.52671  164.93
1420.000000  0.04990  -22.65
1440.000000  0.27236  -14.75
1460.000000  0.93175  -19.66
1480.000000  1.07219  158.72
1500.000000  0.96955  158.91
1520.000000  0.93712  -23.86
1540.000000  0.32482  -12.71
1560.000000  0.27823  -13.57
1580.000000  0.14605  140.28
1600.000000  0.70419  -20.19
1620.000000  0.53414  -27.33
1640.000000  0.56285  162.97
1660.000000  9.87544  -50.45
1680.000000  1.01022  156.74
1700.000000  0.52822 -176.24
1720.000000  0.59098  161.95
1740.000000  0.88035  156.85
1760.000000  0.52278  161.07
1780.000000  0.02738  -17.12
1800.000000  1.00917  153.62
1820.000000  1.11647  150.54
1840.000000  0.27928  146.43
1860.000000  0.92450  154.41
1880.000000  1.14659  -30.45
1900.000000  0.25619  147.89
1920.000000  1.24356  147.99
1940.000000  1.01959  152.58
1960.000000  0.09069  -97.60
1980.000000  0.03262 -101.57
2000.000000  2.31414  -23.77
2020.000000  1.06748  151.18
2040.000000  0.01652  127.05
2060.000000  1.05847  -33.51
2080.000000  1.09522  148.65
2100.000000  0.09290  121.88
2120.000000  1.70930  -48.99
2140.000000  0.49691  155.55
2160.000000  0.41042  -27.25
2180.000000  0.08047    7.71
2200.000000  1.10884  146.21
2220.000000  1.06991  147.12
2240.000000  0.30597  -57.42
2260.000000  0.10877  101.70
2280.000000  0.87847  147.88
2300.000000  0.92956  101.04
2320.000000  0.24317   67.19
2340.000000  0.92205  143.59
2360.000000  0.87387   -9.10
2380.000000  0.64689  -45.46
2400.000000  0.83659  144.17
2420.000000  0.97152  145.90
2440.000000  1.22592  141.03
2460.000000  1.07948  143.71
2480.000000  0.10950  149.25
2500.000000  0.84374  -37.31
2520.000000  0.85741  148.10
2540.000000  0.48892  120.96
2560.000000  0.23226  -42.62
2580.000000  0.91565  130.56
2600.000000  0.83882  -39.36
2620.000000  0.94992  143.26
2640.000000  0.89271  142.78
2660.000000  0.97273  -45.93
2680.000000  0.06603  124.31
2700.000000  0.53680  147.33
2720.000000  0.87673  135.25
2740.000000  3.34164  172.99
2760.000000  0.93707  141.71
2780.000000  0.06480  -31.53
2800.000000  0.49430 -136.06
2820.000000  0.94981  139.47
2840.000000  1.09903  135.86
2860.000000  0.61949  -33.56
2880.000000  0.88807  143.72
2900.000000  0.50941  141.62
2920.000000  1.07818  143.14
2940.000000  1.03188  139.48
2960.000000  1.18858  139.13
2980.000000  1.12048  137.33
3000.000000  0.93995  137.47
