# MHz S MA R 50
!   freq        S11              S21              S12              S22       
1000.000000  1.10791   61.83  0.00000   -0.00  0.00000    0.00  1.26761   75.25
1010.000000  1.00820  164.87  0.00000   -0.00  0.00000    0.00  1.01111  164.71
1020.000000  0.59301  140.35  0.00000    0.00  0.00000   -0.00  0.50719  136.37
1030.000000  1.05766  -20.02  0.00000    0.00  0.00000   -0.00  1.05700  -20.48
1040.000000  1.14614   97.82  0.00000   -0.00  0.00000  180.00  1.52737  104.27
1050.000000  0.20968 -164.32  0.00000  180.00  0.00000    0.00  0.16004 -159.33
1060.000000  0.53280   54.85  0.00000    0.00  0.00000   -0.00  0.39990   55.71
1070.000000  0.08794 -107.27  0.00000   -0.00  0.00000   -0.00  0.09835 -109.59
1080.000000  0.12697  -57.94  0.00000   -0.00  0.00000    0.00  0.11661  -73.61
1090.000000  0.71978  140.34  0.00000   -0.00  0.00000   -0.00  0.72101  140.48
1100.000000  1.05808  -55.32  0.00000    0.00  0.00000    0.00  1.04849  -53.58
1110.000000  1.02392  -22.37  0.00000    0.00  0.00000  180.00  1.03087  -22.33
1120.000000  0.06544   24.25  0.00000   -0.00  0.00000  180.00  0.06581   23.97
1130.000000  0.47275 -152.59  0.00000    0.00  0.00000   -0.00  0.48468 -153.51
1140.000000  1.20060  -24.10  0.00000    0.00  0.00000  180.00  1.20683  -24.67
1150.000000  1.54541   87.53  0.00000  180.00  0.00000    0.00  1.44458   84.14
1160.000000  1.05249  161.99  0.00000  180.00  0.00000    0.00  1.04935  162.16
1170.000000  1.10092 -135.33  0.00000  180.00  0.00000    0.00  1.28445 -129.54
1180.000000  1.08888  -25.38  0.00000    0.00  0.00000  180.00  1.07736  -24.49
1190.000000  0.08557 -118.05  0.00000    0.00  0.00000    0.00  0.08883 -120.49
1200.000000  0.31095   90.08  0.00000  180.00  0.00000    0.00  0.31514   80.07
1210.000000  0.20873 -112.84  0.00000  180.00  0.00000   -0.00  0.24402 -110.66
1220.000000  0.98721  -25.93  0.00000    0.00  0.00000    0.00  1.00065  -26.13
1230.000000  0.94844  -24.94  0.00000  180.00  0.00000   -0.00  0.94794  -24.48
1240.000000  0.75493   23.55  0.00000    0.00  0.00000   -0.00  0.68382   27.01
1250.000000  1.32386    9.92  0.00000   -0.00  0.00000    0.00  1.32469    5.39
1260.000000  0.34681   90.29  0.00000  180.00  0.00000    0.00  0.36240   86.85
1270.000000  0.65226 -133.54  0.00000   -0.00  0.00000    0.00  0.47840 -123.00
1280.000000  0.03345   74.22  0.00000    0.00  0.00000   -0.00  0.02898   81.75
1290.000000  0.61980 -162.04  0.00000  180.00  0.00000    0.00  0.49379 -146.62
1300.000000  1.14424  -27.06  0.00000   -0.00  0.00000    0.00  1.15007  -23.81
1310.000000  1.45285  133.79  0.00000    0.00  0.00000    0.00  1.34532  132.11
1320.000000  0.35536  101.95  0.00000    0.00  0.00000   -0.00  0.23808   71.45
1330.000000  0.28432  -90.61  0.00000    0.00  0.00000    0.00  0.17525 -128.98
1340.000000  0.03183   55.57  0.00000  180.00  0.00000    0.00  0.03180   64.42
1350.000000  0.17845  -63.47  0.00000    0.00  0.00000  180.00  0.10217  -56.13
1360.000000  0.65542 -128.38  0.00000    0.00  0.00000    0.00  0.73519 -121.50
1370.000000  0.33078   69.78  0.00000    0.00  0.00000   -0.00  0.49040   93.86
1380.000000  0.96723  -24.86  0.00000   -0.00  0.00000    0.00  0.94509  -23.57
1390.000000  1.00935  -19.57  0.00000    0.00  0.00000  180.00  1.02050  -19.25
1400.000000  0.45729 -105.40  0.00000    0.00  0.00000   -0.00  0.64016 -113.12
1410.000000  0.14566  -69.78  0.00000  180.00  0.00000    0.00  0.13386  -60.14
1420.000000  0.03081   65.26  0.00000    0.00  0.00000    0.00  0.03115   64.64
1430.000000  1.39080   90.31  0.00000    0.00  0.00000  180.00  1.33368   84.25
1440.000000  0.32924   86.69  0.00000  180.00  0.00000  180.00  0.34020   85.22
1450.000000  0.64663   94.71  0.00000    0.00  0.00000  180.00  0.58255   79.33
1460.000000  0.23810 -105.01  0.00000    0.00  0.00000    0.00  0.27195  -83.77
1470.000000  0.75546   42.16  0.00000  180.00  0.00000    0.00  0.69076   46.19
1480.000000  1.02634  158.53  0.00000   -0.00  0.00000  180.00  1.02081  158.62
1490.000000  0.32846  108.11  0.00000    0.00  0.00000    0.00  0.36478  106.85
1500.000000  0.55155 -161.86  0.00000    0.00  0.00000   -0.00  0.51364 -157.62
1510.000000  1.28204  -56.52  0.00000   -0.00  0.00000  180.00  1.53625  -60.71
1520.000000  1.50247 -103.10  0.00000    0.00  0.00000  180.00  1.73416 -124.32
1530.000000  0.31176   86.40  0.00000    0.00  0.00000    0.00  0.34278   88.77
1540.000000  0.02559   46.75  0.00000    0.00  0.00000   -0.00  0.02780   42.64
1550.000000  0.99576  157.64  0.00000   -0.00  0.00000    0.00  0.99334  157.59
1560.000000  0.94056  -27.82  0.00000    0.00  0.00000  180.00  0.95099  -27.08
1570.000000  0.58951   -6.36  0.00000  180.00  0.00000    0.00  0.56071   -1.88
1580.000000  0.84607  164.91  0.00000   -0.00  0.00000    0.00  0.84606  164.99
1590.000000  0.12280 -104.75  0.00000   -0.00  0.00000    0.00  0.10020 -133.72
1600.000000  0.02541   48.07  0.00000    0.00  0.00000    0.00  0.02564   45.21
1610.000000  1.01058 -159.42  0.00000    0.00  0.00000    0.00  1.10287 -156.13
1620.000000  0.44835   84.66  0.00000  180.00  0.00000    0.00  0.26994   58.08
1630.000000  1.16684   18.10  0.00000    0.00  0.00000    0.00  0.92166    8.95
1640.000000  1.02591  154.19  0.00000    0.00  0.00000    0.00  1.01802  153.98
1650.000000  0.09257  -80.93  0.00000   -0.00  0.00000    0.00  0.20492  -66.66
1660.000000  0.68767 -159.30  0.00000    0.00  0.00000   -0.00  1.35008 -148.43
1670.000000  0.22849   58.09  0.00000  180.00  0.00000    0.00  0.37869   97.13
1680.000000  0.91246  -27.91  0.00000    0.00  0.00000    0.00  0.91098  -27.97
1690.000000  0.35388   78.18  0.00000    0.00  0.00000   -0.00  0.61134   99.88
1700.000000  0.56444   27.00  0.00000  180.00  0.00000  180.00  0.62176   32.94
1710.000000  0.65617   49.31  0.00000   -0.00  0.00000    0.00  0.97229   41.63
1720.000000  0.43438  110.44  0.00000  180.00  0.00000   -0.00  0.41537  115.23
1730.000000  0.73657  179.96  0.00000    0.00  0.00000    0.00  0.73379  179.77
1740.000000  1.11606  -34.55  0.00000   -0.00  0.00000  180.00  1.12618  -34.67
1750.000000  0.02921   52.67  0.00000    0.00  0.00000  180.00  0.02844   52.19
1760.000000  0.58174   99.37  0.00000  180.00  0.00000  180.00  0.67107   93.72
1770.000000  1.43686 -131.93  0.00000    0.00  0.00000  180.00  1.14606 -149.19
1780.000000  1.10878  -33.77  0.00000    0.00  0.00000    0.00  1.10852  -33.80
1790.000000  0.17642   93.96  0.00000  180.00  0.00000   -0.00  0.13875   90.75
1800.000000  0.33626   90.82  0.00000    0.00  0.00000   -0.00  0.36072   60.89
1810.000000  0.50079  101.38  0.00000    0.00  0.00000  180.00  0.39159   97.73
1820.000000  0.02297   24.47  0.00000    0.00  0.00000  180.00  0.02158   20.58
1830.000000  0.14477  -60.75  0.00000  180.00  0.00000    0.00  0.17551  -79.51
1840.000000  1.27060   84.29  0.00000    0.00  0.00000    0.00  1.25334   96.53
1850.000000  1.24093    3.62  0.00000  180.00  0.00000    0.00  1.42314    7.79
1860.000000  0.31263   67.39  0.00000    0.00  0.00000  180.00  0.34887   71.88
1870.000000  1.36057   42.61  0.00000   -0.00  0.00000    0.00  1.31166   29.28
1880.000000  0.32337 -165.91  0.00000    0.00  0.00000   -0.00  0.37587 -171.24
1890.000000  0.65350 -166.02  0.00000    0.00  0.00000    0.00  0.61356 -166.46
1900.000000  0.02980   80.12  0.00000   -0.00  0.00000   -0.00  0.02972   79.97
1910.000000  0.94498  -32.12  0.00000   -0.00  0.00000    0.00  0.95184  -30.56
1920.000000  0.94521  -31.31  0.00000   -0.00  0.00000   -0.00  0.92801  -31.44
1930.000000  0.90925  -34.14  0.00000    0.00  0.00000    0.00  0.89897  -31.12
1940.000000  0.03027   11.26  0.00000    0.00  0.00000    0.00  0.03027   11.26
1950.000000  0.23793   93.73  0.00000   -0.00  0.00000   -0.00  0.19092   73.11
1960.000000  0.02271   57.79  0.00000  180.00  0.00000    0.00  0.02575   69.93
1970.000000  0.64049 -151.74  0.00000   -0.00  0.00000    0.00  0.57330 -125.68
1980.000000  0.38605   88.50  0.00000   -0.00  0.00000  180.00  0.30845   47.94
1990.000000  0.22124   59.36  0.00000    0.00  0.00000  180.00  0.38286   56.23
2000.000000  0.98196  -33.33  0.00000    0.00  0.00000   -0.00  0.96502  -35.14
