# MHz S MA R 50
!   freq        S11              S21              S12              S22       
1000.000000  0.26962  142.29  0.38068 -178.35  2.10324    7.21  0.60521  126.26
1020.000000  0.03343   88.30  0.51222    2.93  1.69762  176.98  0.03839  105.49
1040.000000  0.56611   93.87  1.11127   55.76  0.34885 -130.69  0.25846   70.48
1060.000000  0.42481  -67.98  0.66922  -96.68  1.53135  -88.03  0.43420 -102.76
1080.000000  0.06611  120.79  0.74822  -61.00  4.24750  -58.39  0.08002  154.67
1100.000000  0.05833  174.74  0.41273  163.86  0.43448  176.11  0.07700  136.64
1120.000000  0.35095  -93.56  0.37980 -165.31 71.70529  150.41  0.90745  -96.30
1140.000000  0.96594   82.30  1.39024    9.73  0.48080   95.88  0.62450  121.24
1160.000000  0.23380   41.42  0.59865 -177.28  2.32927 -152.80  0.42773   97.07
1180.000000  0.55286   86.00  0.75802 -153.14  1.94781  -22.73  1.00017   72.33
1200.000000  0.40573  128.41  0.37647  -43.77  0.31680  -81.72  0.48289 -127.53
1220.000000  0.30732   75.74  3.09244 -160.89  0.52275   66.69  0.40415   52.90
1240.000000  3.44332   95.60  0.46317   63.01  0.34603  -52.34  2.69174  -20.56
1260.000000  0.74901  -92.39  7.41479 -168.32  1.15527 -175.24  1.74520 -120.60
1280.000000  0.95008  -89.16  3.55160   33.97  5.04286   33.16  0.90212  -83.45
1300.000000  0.52879 -114.50  2.07933  -19.29  2.11407   13.52  4.07953  -29.35
1320.000000  1.87027  130.09  0.69257   17.00  0.55418 -163.75  1.74780  -88.48
1340.000000  0.37011   86.60  0.73403  152.64  0.53479  -34.85  0.61147  121.32
1360.000000  0.28318 -103.45  1.40033  -67.83  2.53161   72.27  0.23461 -118.52
1380.000000  0.98301  177.20  1.05212 -140.32  5.77495 -172.66  1.07452  115.37
1400.000000  0.66106  -91.73  0.76899   66.33  1.24496 -157.71  0.39234 -113.95
1420.000000  0.19061   94.87 16.38112  -22.16  2.21439  -93.58  0.19204   89.28
1440.000000  1.69748   93.70  1.44730 -130.60  0.96927  -91.33  1.02389   67.76
1460.000000  2.88568 -176.58  3.11066 -163.65  1.90062  -30.21  0.71252   47.77
1480.000000  0.29463  -67.49  2.40760  158.05  3.06648  163.09  1.06185    4.72
1500.000000  0.79557  -34.71  0.64441   -2.20  0.57623  -41.57  0.88403  -58.49
1520.000000  0.79821   85.36  2.30693  131.67  0.57249   90.53  0.67861   47.61
1540.000000  0.56556  -60.68  0.46023  125.95 211.60115   85.79  0.82456  -72.02
1560.000000  2.21062   41.74  0.83000  -78.39  3.16838  177.13  1.28690   68.40
1580.000000  0.90511  -82.24  3.97683  -93.72  1.25712  -51.92  0.68830 -127.66
1600.000000  0.44207  -83.15  0.74452 -150.82  1.09989  157.29  0.36666  -75.84
1620.000000  0.52991  135.13  2.65202  113.34 146.61763  -75.54  1.11008   92.32
1640.000000  1.15132  111.08 127.08136  -14.46 149.32764   63.53  1.16060  110.34
1660.000000  0.49679 -122.72  1.82117   79.70  1.58021  -93.61  0.51659 -101.95
1680.000000 19.48626 -175.62  1.44234  -83.03 226.58994  104.76  0.99837   91.34
1700.000000  0.17710   98.89  2.23163  155.66  1.80334  123.17  0.17238   99.92
1720.000000  1.45740 -109.41  1.33851  140.75  0.69222 -145.54  0.47369   16.69
1740.000000  0.81042  140.54  2.66351  145.74  0.55755  176.75  1.04793 -112.68
1760.000000  0.94569  -36.98  0.61548 -150.25  3.39839   56.92  0.99133  -61.10
1780.000000  1.55072   72.41  2.21788  -17.93  2.08412  -97.69  1.45559   34.37
1800.000000  5.57030  121.15  0.92098 -103.58 277.63462  104.25  0.96089   69.27
1820.000000  0.39795   67.25 229.64617   -8.94  1.02092  157.95  0.22386   82.47
1840.000000  0.74693  -58.40  1.55950   20.57  1.31976  -50.66  0.03947 -150.37
1860.000000  1.39017  -86.72  1.38766   29.01  2.72871  -38.87  1.28733   86.01
1880.000000  0.84010  -87.46  2.86756  144.15  1.02600   40.41  0.53970 -101.65
1900.000000  0.79428   41.09  1.33881  119.44  3.33882  124.62  2.41079   49.60
1920.000000  0.92792 -134.10  2.70623  -19.33  4.67463  -98.30  2.34350  -88.76
1940.000000  0.38087  118.83  4.49160  -87.41  2.07290  -82.04  0.21461   85.01
1960.000000  1.25178  109.78 370.37533    2.15  0.92355   43.73  0.79073   56.78
1980.000000  1.05680 -103.94  5.16689   27.00  1.70260 -103.57  0.65790  -82.17
2000.000000  1.17719 -164.64  0.80950   88.09  2.18998   56.42  0.25885  -73.95
2020.000000  1.90424 -112.28  1.68046  -49.98 17.08027  121.97  0.37749  -43.01
2040.000000  0.84258   77.77 13.94305   48.98  1.08072  111.08  1.24495  -82.08
2060.000000  3.75713  -46.35  3.09499  159.00  7.32908  120.29  2.72180  -52.37
2080.000000  2.14990   12.21  6.63419 -149.66  2.94859  112.60  1.38490   25.47
2100.000000  1.07762   77.63 481.20041  165.91  2.39206 -155.58  0.91407   63.85
2120.000000  0.88880  -74.20 11.05798  -33.70  1.08801  -11.79  0.57158  -40.56
2140.000000  1.06941  -93.68  2.25352   28.76  1.74298   39.34  0.78032  -11.08
2160.000000  0.72481   35.74  2.08786   74.14  5.25953  110.31  0.74042   89.27
2180.000000  1.59570  -37.10  3.91663   51.58 14.90914 -158.69  3.13696   92.78
2200.000000  0.66771   96.91  3.41957  -40.09  1.94913   -7.46  0.89265   -5.63
2220.000000  1.48939 -120.68  3.28027  -99.47 12.77867   19.70  0.97807 -130.79
2240.000000  0.16841 -128.56  1.41976    4.33  8.24606   72.10  0.25552 -123.84
2260.000000  2.96446 -159.25 35.99496   55.04  2.50411   88.14  1.94132 -107.63
2280.000000  0.61864  107.05  6.21595  139.33  3.76738  119.92  0.54429  108.69
2300.000000  0.30551  -85.81 12.13172  159.39 12.36701  -14.70  0.30363  -86.78
2320.000000  1.01769   71.81 54.80252   73.24  2.90378  -95.57  1.25491   66.32
2340.000000  0.13808  137.91  2.49757   50.39  1.42831   66.22  2.71932   -6.28
2360.000000  0.84301   71.75  7.18077  -26.94  8.65458  -53.42  0.88871  -16.51
2380.000000  1.23270   75.53  8.97490  118.02  5.07259  113.10  0.35238   81.39
2400.000000  1.50702   40.81  4.47487  168.27  1.87330   -2.36  1.59032  101.72
2420.000000  0.05095   75.34  1.52335   43.10  8.02512 -146.46  1.14718   81.28
2440.000000  0.20960 -112.91  4.26385  -62.95  3.92958  -44.70  0.13728  -87.99
2460.000000  1.25524  120.93  8.24131  -77.05  7.31577   46.47  2.98028  149.29
2480.000000  0.29211 -122.68 546.52728   56.36 33.60038   -7.18  0.29020 -123.92
2500.000000  0.20285  136.84  2.47750  -55.07 19.00603  154.11  0.40761  161.13
2520.000000  0.66848  134.86 319.23794  108.52  2.26975 -158.34  0.75026  158.08
2540.000000  0.22903  136.20  2.07591   68.51  1.98201   50.66  0.22539  165.37
2560.000000  3.03083 -146.56  8.49595    7.18  3.25225    9.34  0.43426  113.85
2580.000000  0.47112   21.61  2.67174  -93.06  4.18843  115.36  0.47671  159.04
2600.000000  0.56458   95.95 10.20797  101.33  6.43439  -40.95  0.42420   70.36
2620.000000  1.12923  174.39  2.17991  179.13  3.98399   57.58  3.21162 -105.11
2640.000000  0.82366   22.53  5.03161   27.34  1.41968   23.03  0.45350    2.87
2660.000000  0.77027  -64.83  2.22350 -151.86  3.60577 -109.16  0.49167  -33.84
2680.000000  0.48349   35.49  2.19825  143.71  1.84691 -177.88  0.13484 -158.28
2700.000000  1.14884   85.68 500.89646   15.64  9.44754  -24.57  3.15251  100.74
2720.000000  1.56463   58.27 10.30095   50.36  4.14471   20.81  1.23422   39.72
2740.000000  5.65988   50.78 530.07546 -162.54  5.31891   59.09  2.90006   67.48
2760.000000  1.33773  169.87  8.05976   23.95 2414.56074   26.39  1.22837  176.64
2780.000000  0.39151  111.32  5.47671  132.45  2.35273  -20.50  0.25818  127.37
2800.000000  0.96214  153.71  1.95284  -49.65 113.79617  130.80  1.23093  142.70
2820.000000  0.37291  166.58 22.00764  177.29  5.29289  142.04  0.30692  169.81
2840.000000  3.30103  -34.55  9.54635 -148.02  7.77881   13.01  2.91713 -155.55
2860.000000  1.11902  141.89  4.57509 -117.05  2.69001 -138.49  0.45682  122.06
2880.000000  0.25881   59.22 698.13963  -10.79  3.40083   79.54  0.16200    3.40
2900.000000  1.11267   58.96 21.03674 -167.36 10.42190 -129.10  1.13021   59.07
2920.000000  0.55916  -41.92  2.02699  -45.71 92.78608   95.20  0.44270  -27.31
2940.000000  0.82113    1.59  4.44002  -10.26 22.77263 -161.37  0.82925    3.44
2960.000000  0.28339   18.84  3.51189  162.05  4.49205  171.87  0.68908   71.00
2980.000000  1.04691 -131.97  5.42533  -13.13  3.45823   -8.59  0.94086   58.43
3000.000000  1.22816  -83.52  6.84019   77.31 31.17544 -105.28  2.22705  -69.10
