# MHz S MA R 50
!   freq        S11              S21              S12              S22       
1000.000000  0.53776  121.78  0.37078 -173.60  0.00983    1.11  0.38370   72.08
1020.000000  0.03650   87.09  1.36041  162.93 121.02720  -91.97  0.04203   85.95
1040.000000  0.29236    7.81  0.91185 -116.80  3.84971 -118.56  0.40130   81.75
1060.000000  0.12729  -51.16  3.66698   83.81  0.77914   67.62  4.26163 -160.67
1080.000000  0.14611  157.96  0.35593  -77.74  0.47459  -79.45  0.11334  170.11
1100.000000  0.06906  139.15  0.70539  160.02  0.79267  -36.12  0.03781   49.65
1120.000000  0.90161  -96.73 181.88035  136.84  0.65514   28.13  0.32741  -62.57
1140.000000  0.99993   92.21 59.64103   97.66  1.15420   38.19  0.57323   70.96
1160.000000  0.29325   29.39  0.51269   22.60  0.33295  153.04  0.36627   50.21
1180.000000  0.87912   67.06  1.16045  -23.11  0.41881  164.97  0.24515   61.81
1200.000000  1.05461   50.94  0.79928  123.18  0.37272  -87.74  0.26582  -83.23
1220.000000  0.13687   84.93  0.42496  -19.46  0.44312  160.71  0.20448   52.94
1240.000000  2.69802  164.49  0.74017   67.69  1.11765   59.32  1.06451 -131.70
1260.000000  1.37755  -70.56  1.33269 -138.18  0.48828  -13.50  0.43112 -103.50
1280.000000  1.49733  -81.98  0.55411   31.47  0.39450   15.77  0.62398  -74.91
1300.000000  1.09489  -72.93  0.26126   90.79 68.09865  165.84  2.81657  -76.19
1320.000000  1.67436  101.68  2.28770 -150.06  0.29109 -175.82  2.53704  126.45
1340.000000  0.46402  123.80  3.94502   80.42  0.44560  141.47  0.27407  103.77
1360.000000  0.21710 -106.54  0.59638   60.90  0.36235 -125.98  0.20657 -128.46
1380.000000  1.14444   92.83  2.92188 -131.15 292.98212  106.09  1.00774  106.01
1400.000000  2.58845  -72.30  0.38326  120.46  3.26240 -152.36  0.85012  -99.24
1420.000000  0.18898   96.34  4.64785 -144.95  7.59805   15.77  0.20731   91.33
1440.000000  1.01247   92.18  5.85346  169.84  1.52358   57.80  0.89328   78.15
1460.000000  0.92138   77.65  3.11350   85.37  3.23321   19.05  0.70759   72.28
1480.000000  0.50692 -122.77  0.34326  103.65  2.14539  163.94  0.53844  -67.61
1500.000000  0.70868  -76.33  0.67167  -79.45  0.48405  -71.81  0.83281  -65.19
1520.000000  2.10535   76.26  0.71068   99.35  0.92620  115.30  1.90801   50.07
1540.000000  0.24961 -117.19  1.82053  174.39  0.85613   61.83  0.51974  -62.66
1560.000000  0.28733  149.56  1.36223  160.26  0.75061  169.50  0.86365    2.13
1580.000000  0.85197  -85.48 178.94985 -127.79  3.80468   23.01  0.84016  -74.15
1600.000000  0.41468  -62.74  1.39063  174.07  2.27168  -11.88  0.47448 -104.30
1620.000000  0.44272  108.39  1.64132   34.57  2.16908  160.80  1.17310  102.78
1640.000000  0.72502   88.55  2.40024   13.04  8.75089  138.94  1.41560  106.37
1660.000000  0.87768 -105.13  2.32031  -46.24  4.85264  173.47  2.01086 -116.03
1680.000000  1.25336   90.84  3.10427 -103.23  1.98396 -174.19  1.08819   39.06
1700.000000  0.15115  129.88  0.49713   83.15  0.41453   92.61  0.09448   18.06
1720.000000  8.25807  -13.28  1.84272  138.74  1.23255 -138.05  0.31527 -153.68
1740.000000  2.75471  -28.94  0.87708  143.01  2.09273  150.60  0.86184  103.99
1760.000000  0.61663  -67.89  1.32139 -169.16  4.54599 -168.89  1.13603  -71.30
1780.000000  2.32249   74.29  3.11065   -9.31 22.19820  -97.00  3.60725   36.86
1800.000000  0.57943   50.38  0.70873 -113.55  0.72313  -75.72  0.48575   72.48
1820.000000  0.37883   76.41  4.38458  -19.26  1.92366  151.61  0.52988   62.25
1840.000000  1.38253  109.33  1.28945  -35.11  3.03958  148.88  1.13383  -52.96
1860.000000  0.81290   88.85  3.04743 -169.71  1.89188  -35.29  1.23560   31.75
1880.000000  0.85621 -108.37  3.14669  162.74  2.32720  116.11  0.96886  -70.08
1900.000000  3.30604  110.64 404.48567  -30.23  1.65976  160.80  0.54876  147.92
1920.000000  0.59525 -110.91  1.70741  138.94  1.41535  -16.27  0.41520  -96.21
1940.000000  0.22970   76.23  1.03639  -81.80  1.38206  -16.36  0.50261   99.23
1960.000000  1.25436  109.42 170.06952  -32.92  8.79843   -2.99  1.09968  105.93
1980.000000  0.64790  -50.37  0.95824 -148.45  2.22398  -99.66  1.17638 -126.80
2000.000000  1.71318  127.60  1.31525  -95.40  1.70948  134.62  1.07032   -6.63
2020.000000  5.76790  -50.33  2.72874  -42.75 11.15393  -58.55  2.14656  -99.25
2040.000000  0.40634   80.03  1.11347   53.19  1.60083   75.30  0.37163  104.25
2060.000000  0.36611   51.80  1.29490  -72.67  3.99189  146.65  0.35046   22.99
2080.000000  3.82946   37.31 744.27905   27.35  0.93835   61.44  3.67233 -138.53
2100.000000  1.06352   82.77 10.20287   42.48 10.23936  135.18  1.28432   53.60
2120.000000  0.68339  -45.58  1.78319   19.06  1.19383   42.88  0.05757  -70.40
2140.000000  0.89513  -78.71  5.47176 -101.78 403.45656   -9.02  0.87196  -70.58
2160.000000  0.95438   89.37 331.97953   20.55  5.54097  -77.41  0.85448   91.56
2180.000000  1.10771  112.12  3.59623   71.91 405.98145  -95.47  3.34078   83.05
2200.000000  0.53319  103.95  1.44679  -33.46  2.62868   24.79  0.99839  121.72
2220.000000  1.17831 -120.19 434.98789  -54.75  5.95234   33.55  1.11105 -109.36
2240.000000  0.28838 -122.42 12.11842   39.93  8.35413 -130.73  0.66265 -176.00
2260.000000  3.51769  167.24  2.03141   73.39  5.47421   42.68  2.00290 -148.05
2280.000000  0.08548 -165.67  2.54084  129.67  3.87793  147.54  0.93020  123.87
2300.000000  0.39071  -67.39  3.33342  -18.21  2.65192   97.09  0.22825  -78.65
2320.000000  2.57560   54.08  9.70263  110.84  1.56042  -98.17  0.57506  -27.06
2340.000000  1.21011   65.18  3.72825   69.86  4.33536  -77.24  0.81303   85.68
2360.000000  1.00860   72.68 29.03587  -31.68  4.09229  133.43  0.97949  102.61
2380.000000  0.80845   47.68  6.36025  -41.81  3.56205   62.34  0.74817   84.17
2400.000000  1.12537   60.14  2.55808  -44.66  2.70682    7.95  0.87225   30.79
2420.000000  1.36196   57.78 65.45125 -179.63  6.92468 -163.77  1.57724   52.16
2440.000000  0.10437  -93.47  2.01518  -32.08  9.52932  170.51  0.17967  -81.24
2460.000000  1.25229  132.93  8.39690  -78.96  1.60745  120.12  1.01255  137.25
2480.000000  0.29547 -120.11 34.41805   -2.05  3.85428   22.43  0.19129 -125.19
2500.000000  0.34484  159.26  9.92751  -28.74  1.81550  -41.95  0.31393  171.01
2520.000000  0.56426  134.41  6.04301  156.67 238.22266   65.67  0.66788  134.56
2540.000000  0.15949  137.92  1.21904   34.55  6.23640   31.03  0.31895  154.63
2560.000000  1.08030  173.13  2.73735  127.04  6.03158  163.62  1.42552  117.23
2580.000000  0.52596   90.78 12.49444  116.31  2.08933   85.65  0.25304   49.01
2600.000000  0.90243   84.92 14.58870  -61.62 12.99933  134.86  0.89092   83.31
2620.000000  8.05481   63.72  6.68303   24.72 13.38464   20.29  3.18253   76.32
2640.000000  0.97382   38.65  7.01339   17.59  2.84968 -177.75  2.93081  -50.97
2660.000000  0.40643 -157.61  2.03875 -145.06 474.95736  170.88  0.39167  -24.18
2680.000000  0.20665    4.52 472.24360   96.84  2.59061  156.89  0.12743   91.32
2700.000000  0.82372   90.34  5.14266  160.68  3.73261  -60.30  1.22567   44.60
2720.000000  1.23908   69.36 17.75902 -109.21  4.44761 -106.49  1.22410  145.53
2740.000000  2.70261   50.94  5.85889  131.36  7.82822  106.98  1.40537  170.86
2760.000000  1.15060  178.79 11.18314 -130.09 534.56422 -156.34  1.22876  176.70
2780.000000  0.49564  128.23 32.69412  133.26  2.70137  -45.86  0.46097  110.11
2800.000000  0.22818  171.78  3.64710  116.99  4.25072  131.57  1.56666  134.88
2820.000000  0.31986  140.67 11.58444  -46.47 17.65640  125.69  0.34664  158.55
2840.000000  1.72814  -22.65  4.49037   59.46  5.01977   28.54 12.34631   76.45
2860.000000  1.08704  130.04 746.76630  120.22  3.94999  -99.13  1.44530  135.20
2880.000000  0.13474   76.39  2.47738   74.96  1.80987   60.15  0.29575  100.40
2900.000000  1.12303   56.76 638.72966  142.65 10.15931   20.36  1.05105   52.88
2920.000000  0.47134  -54.35  2.68343  133.27 43.37696  122.94  0.44843  -27.13
2940.000000  0.81354    0.88  8.45530   31.04  7.27677   -1.24  0.87891    1.08
2960.000000  0.25013   61.54  2.53401  179.82 11.39010  -15.42  0.34221   34.17
2980.000000  1.29441   91.14 15.62466   -8.01  9.16129  -20.61  1.57458   72.03
3000.000000  2.55654  -76.27 24.86977   72.71  5.12302   93.25  3.94131  -55.70
