# MHz S MA R 50
!   freq        S11              S21              S12              S22       
1000.000000  0.39589   87.94  3.43198 -174.00  0.60117    5.88  0.45415  123.75
1020.000000  0.04114   67.22  0.03210  -80.48  1.31932 -171.94  0.04638   83.88
1040.000000  0.08030   90.27  0.14985   42.84  0.61517 -114.84  0.22496  164.35
1060.000000  0.57573  -95.80 139.16608 -176.84  0.80244  -87.94  0.53216  101.83
1080.000000  0.02839  153.46  0.19275  136.75  1.68947  108.73  0.06819  174.74
1100.000000  0.04000  112.69  0.34187  -40.77  0.34176  -47.04  0.07177  141.30
1120.000000  0.39955  -57.55  0.19857 -119.83  0.74642 -136.08  0.11411  131.63
1140.000000  2.43589   95.82  2.12077   24.53  0.64395   52.61  0.80493  104.78
1160.000000  0.24892   45.82  0.49420   23.74 13.86025   16.66  0.29067   80.14
1180.000000  0.59008   50.98  1.07066   -6.29  1.96328  173.74  0.86480   97.65
1200.000000  1.20479  122.24  1.69059  125.98  2.18847  -85.11  1.45795   64.35
1220.000000  0.33499   89.81  0.75593  101.99  0.54949 -158.62  0.40176   39.76
1240.000000  2.11721  -54.63  0.80551  -58.47  0.25567  -59.55  0.48958   75.58
1260.000000  0.62076  -80.23  1.95740  -89.66  2.25843 -103.46  0.79045  -86.19
1280.000000  0.88438  -81.48  7.93551 -101.85  0.60123  -72.92  0.75412  -45.36
1300.000000  2.58388  -82.17 10.35290  -25.83  2.63582  163.02 13.13123 -175.25
1320.000000  1.41022  146.42  1.08690  129.71  2.15057   81.85  0.84863   64.46
1340.000000  0.49427   93.77  1.99526   75.03  1.23857   68.81  0.43839   82.37
1360.000000  0.25963 -113.42 21.97750  136.27  1.26748 -112.96  0.24087 -105.97
1380.000000  1.03507   70.20  0.34707   72.45  5.59972 -144.15  1.36169   76.06
1400.000000  0.47465 -126.73  0.41995  -28.82  6.57260  -38.13  0.98416  -91.02
1420.000000  0.18951   96.57  1.83459 -132.32  1.05460  155.51  0.17387   49.82
1440.000000  0.93827   86.46 133.58765  102.54  0.59028 -118.53  1.38893   25.93
1460.000000  0.94877   78.97  4.08913 -154.08  0.87143 -138.62  0.55351   87.06
1480.000000  0.30539  -78.24 81.43195    0.99  1.65879   83.36  0.27281  -75.73
1500.000000  0.76961  -81.56  1.13910   92.61  0.83692  -37.05  0.99149  -77.59
1520.000000  0.80787   82.12  3.50202   52.52  1.12736  116.01  0.38877   60.76
1540.000000  0.87434  -80.22 14.80301 -138.86 10.26955    4.66  0.83840  -61.62
1560.000000  0.72035   81.32  0.63734   68.06  2.02593   33.53  1.24966   44.43
1580.000000  0.79278 -102.84  6.44386  144.77  1.01729  -97.24  1.24364  -30.57
1600.000000  0.57672  168.03  0.69615   33.22  1.32518  174.80  0.12747 -107.24
1620.000000  1.03550   98.14  4.28235  -30.04  2.70274  -69.58  0.98078   77.45
1640.000000  2.02684  156.70  1.70876 -171.02  3.08940   86.67  0.84032  115.02
1660.000000  0.81937  -82.42  4.80993  147.07  3.10954   -9.21  1.08664  -45.19
1680.000000  1.99420   92.24  2.32638   68.58  2.42021 -170.38  0.81655   57.96
1700.000000  0.24967 -165.27  1.23451  -82.36  3.94521  -28.44  0.28675  122.83
1720.000000  0.48705  152.01  1.20429  115.59  0.64102  168.54  1.36669  151.30
1740.000000  0.87438   85.12  5.28259  -35.62  5.05423 -144.67  0.65219   95.54
1760.000000  1.11773  -81.15  5.45246   32.00  0.53978 -165.91  0.42539   15.92
1780.000000  5.82714  -37.06  2.81154  -42.57  1.50837   44.54  2.73125  107.46
1800.000000  6.48256  114.77  1.46368  -93.02  3.73098   30.54  0.80865   63.74
1820.000000  0.06620 -118.23  0.93036   73.30  4.00540  -38.38  0.34275   63.29
1840.000000  1.23153  120.69  0.87523   38.47  3.39303  122.41  0.71666  -90.45
1860.000000  0.92480   87.51  1.25321  -49.76  1.39615   52.74  2.99919   56.98
1880.000000  0.84515  -88.64  3.72093   17.10  3.34990    7.10  0.76021  -93.46
1900.000000  1.31482   72.87  0.89611  134.01 247.51408   40.89  3.30836  111.09
1920.000000  1.73177  -90.84  1.27504  -22.08  1.59322  140.12  0.67657 -106.23
1940.000000  0.33231  107.11  3.53742  -40.09  3.79420  111.70  0.39247  120.06
1960.000000  0.39790  117.69  0.93847  -16.37  2.58809 -125.82  1.01588  113.12
1980.000000  1.40385  -94.99  4.73266  -95.73  1.26120 -154.03  2.41556   20.00
2000.000000  1.09826  131.04  1.13263   50.84  8.08078  -97.40  1.04545  103.87
2020.000000  2.17156 -143.29  2.02882    9.47  6.74588  100.78  4.61587  -94.63
2040.000000  0.91989   75.96 20.40076   66.15 215.81206   31.55  0.89049   80.61
2060.000000  2.10585  -45.71  5.15383  -67.40  2.30921  -48.51  2.72018  -96.13
2080.000000  2.07710   48.89  3.08940  -94.22  2.94212  112.60  3.37481  -46.07
2100.000000  0.56190  109.29  2.37313 -160.64  0.94268 -173.67  0.66564   64.87
2120.000000  0.78185  -61.55  9.62573   -6.73  9.06304  148.72  0.68869  -67.30
2140.000000  3.96717  -74.14  2.37174   88.18  0.85292   56.88 16.27170  131.77
2160.000000  0.43916  179.88  0.93348  100.07 346.22808   60.66  0.94989   89.37
2180.000000  2.81834   44.83  2.05685   16.73  2.82109   43.31  0.73051  163.79
2200.000000  0.65709  149.47  1.08273  -38.88  2.98806  178.07  0.66172  102.10
2220.000000  1.50616  -98.77  6.56733  102.99 11.35025   50.31  1.11692 -114.08
2240.000000  0.26655 -129.22  5.94510 -162.12  1.97847   24.00  0.41085 -130.34
2260.000000  1.25283 -127.48  2.89969  120.43  3.28309   60.24  1.06272  -40.63
2280.000000  0.82765  106.27 30.99785  169.99  1.33736  129.85  0.20106  118.06
2300.000000  0.35355  -76.53  4.88385   94.00  2.70982  -50.05  0.13967  -83.36
2320.000000  1.02426   70.60 457.27838   -2.12 24.95348   34.33  1.02452   68.21
2340.000000  1.14032   70.43 55.54633   76.40  9.35513   16.46  1.18297   65.58
2360.000000  2.06325  136.91  2.38722  -16.34  2.07534  159.20  1.64204   83.87
2380.000000  2.16546  138.41  3.06186  111.62  1.95642  102.26  0.29691   52.44
2400.000000  1.10382   17.12  2.21107   -5.92  2.06724  -55.74  1.32684   15.89
2420.000000  1.22336   76.37  8.89355  -10.92  7.81828   10.60  1.32774    2.57
2440.000000  0.14443  -85.89  7.87115  140.64  2.17451  163.56  0.19757  -70.96
2460.000000  2.47727   91.47  3.29642  124.72  3.20843   57.96  2.02790  144.73
2480.000000  0.43454 -107.78  4.27469  170.70  2.02438  153.64  0.15549  -79.66
2500.000000  0.36580  137.90  2.95137  112.88 10.79921  159.74  0.38443  156.59
2520.000000  0.46603  111.34  5.84783  165.42 12.91038   18.63  0.66148  120.45
2540.000000  0.26634  141.51  4.81045   95.86  3.03640   62.21  0.23394 -140.11
2560.000000 33.78242 -106.06 14.74514  136.33 13.53740  -38.45  3.83175 -146.10
2580.000000  0.34007   41.47  2.94609 -116.23  1.65171   89.73  0.21968   36.91
2600.000000  0.43001  121.35  1.61545  146.53  2.46564  116.33  0.75199   55.24
2620.000000  1.56103 -168.71  3.32304  155.92  6.61320 -160.35  2.28695  101.01
2640.000000  0.90510   26.88 13.92599    3.80  3.49441   13.71  1.30276   16.95
2660.000000  0.35248  -27.80  7.51168   80.43  3.89349 -139.85  0.61782  -22.17
2680.000000  0.40309   49.60  1.22507  173.87  1.62228  135.08  0.08025    4.58
2700.000000  0.12791   98.35  2.53028  127.94  2.74748   93.58  0.19205  -49.19
2720.000000  1.03100   59.38  7.93879 -123.61  2.57636   49.42  0.93426  -42.44
2740.000000  6.87933   84.00  7.74243  -81.40  3.47896  -74.49  2.30531  161.90
2760.000000  1.40912  176.84  3.95602 -139.09 12.32548  168.15  1.32960  179.08
2780.000000  0.43482  128.73  3.01143  116.11  3.00889  111.91  0.39735  126.95
2800.000000  1.35290  130.35  6.75190  134.86  4.68600  -79.81  0.68881  156.85
2820.000000  0.31931  162.66  8.89337  -58.51 493.68421 -138.55  0.35361  155.24
2840.000000  3.19971  -46.02 20.84164  -93.36 18.59416   71.00  4.98481  -56.83
2860.000000  0.80980  115.39  4.57232 -116.96 36.63588   51.81  1.11243  129.83
2880.000000  0.30454   58.94  4.70657 -101.05  6.21138   67.88  0.22346   59.34
2900.000000  0.99822   57.03  4.99106   28.87  2.71156  177.41  1.03153   33.66
2920.000000  0.42794  -44.25  5.63428  149.14  5.54907  -32.67  0.43238  -49.28
2940.000000  0.82369    1.24 16.45732  -28.26 24.68021  -28.72  0.82448    4.27
2960.000000  0.39930    5.77  3.52156  177.13  3.70647 -169.70  0.44621   46.94
2980.000000  1.12572   83.79  7.62778  162.46 58.72412  -61.63  1.40197   83.90
3000.000000  3.62847  -21.15  4.63562  -61.21  2.72423  -71.74  2.37125  -40.25
