# MHz S MA R 50
!   freq        S11              S21              S12              S22       
1000.000000  0.32721   85.96  1.60814    7.08 168.73238   96.03  0.58513   84.94
1020.000000  0.04315   94.00  2.87016   -4.19  0.27728 -173.81  0.05579   59.18
1040.000000  0.23512   84.32  1.78242   53.56 98.39683  158.25  0.29420   98.67
1060.000000  0.31813 -107.44  0.51152  123.59  1.00952  -78.56  0.65150 -110.50
1080.000000  0.12038 -168.00  0.65019  -75.27  1.25451  -59.71  0.01416 -129.46
1100.000000  0.04601  132.59  0.41637  -51.66  0.73142  -37.59  0.04737  138.44
1120.000000  0.62564  -97.39  2.84967 -134.03  0.80417   24.83  0.92506  -61.59
1140.000000  0.29265  128.94  0.10250   75.77 244.75035  -45.28  0.99966   92.10
1160.000000  0.29368   81.93 89.48530  -52.62  0.59639    1.14  0.19164   74.73
1180.000000  0.78328   91.59  2.91085  -10.58  0.69702 -154.60  1.24482  101.74
1200.000000  0.88265   79.62  1.04785  -95.13  0.55368  148.45  0.42268   30.16
1220.000000  0.34817   66.02  4.41584 -167.05  0.44941   85.73  0.42157   65.10
1240.000000  2.34991 -111.78  0.66385  -54.70  0.96689  -37.49  3.56412  -86.82
1260.000000  0.28912 -113.28  0.68645    0.36  0.49728  102.03  0.61475  -93.48
1280.000000  1.13111 -116.56  0.80780   42.67  0.75603   51.59  0.87178 -152.28
1300.000000  3.07427  145.86  0.44853  118.95  0.54847 -140.89  3.35809 -114.65
1320.000000  0.42575   74.97  0.30088  144.09  0.88483  -33.67  2.22233  151.39
1340.000000  0.43189  110.46  4.90450  -69.89  2.57305   -0.14  0.45055  101.83
1360.000000  0.28666 -120.53  5.27965  -58.43  3.74387  167.91  0.22461 -105.32
1380.000000  0.85975  125.94  1.37456   -1.11  0.78540  150.34  1.23398   91.91
1400.000000  0.83333 -114.09  1.76083  -44.62  1.86472  -16.45  0.92452 -127.87
1420.000000  0.18671  101.82  1.47654   95.42  0.70804   28.46  0.26344  133.26
1440.000000  0.19968 -179.17  0.99327  -61.35  1.50624    2.87  0.69922   73.40
1460.000000  0.51208   32.62  0.53834   57.64  0.85773 -149.64  0.21783   50.00
1480.000000  0.29368  -61.13  1.12343  108.07  9.79907   17.63  0.28496  -78.53
1500.000000  1.19245  -81.85 405.95505  -57.20  1.02190    4.57  0.95990  -54.14
1520.000000  0.68696   57.01  0.93081  111.55  0.68556 -156.99  2.24338   36.86
1540.000000  0.82099  -71.47 326.41066   84.85  9.63445 -103.33  0.83149  -76.16
1560.000000  1.50922   73.18 58.15056  163.43  1.03112 -151.25  0.78912   75.07
1580.000000  0.54697  -78.94  3.40924  152.08  0.48146  -66.76  0.76738 -163.28
1600.000000  0.80709 -100.34  1.49634   48.79  1.47843  153.37  0.18824   81.26
1620.000000  1.11485   91.96 179.22528 -146.93  0.53465  -16.42  0.21531   50.42
1640.000000  0.52122  178.39  0.40872  -48.59  2.67478   93.49  2.69437   53.86
1660.000000  2.30468  103.05  0.92643  -49.37  5.19529  101.40  1.10667  -68.62
1680.000000  0.24093  118.32  0.61955  -98.27  1.22890 -100.07  1.29161   55.47
1700.000000  0.16615  118.23  2.28493  129.59  1.50190   42.44  0.12317  125.49
1720.000000  7.50127  -31.41  2.47280  160.78  5.16274   -0.98  4.58029  -71.86
1740.000000  1.23410  138.03  0.51214  163.30  3.11554  123.53  0.58509  108.49
1760.000000  0.95355  -47.16  0.82258 -128.65 224.08316   73.72  1.20167  -77.17
1780.000000  0.47041  145.20  0.63114    0.04  1.29408  -40.39  2.18155  161.54
1800.000000  0.66569   75.19  1.57891   99.35  5.94800 -170.29  0.92045   50.10
1820.000000  0.30871   32.34  3.16657  -14.66  0.78124  131.99  0.13381  -76.54
1840.000000  1.79149   61.60  2.82738  -52.53  3.00531    0.28  2.99891  -74.03
1860.000000  1.06554   60.85  3.10243   -2.22  3.37683 -150.46  0.80493   72.72
1880.000000  0.60311 -115.47  1.60113  -22.88  4.76340   36.01  0.71377  -87.86
1900.000000  3.15715   49.01  6.89535  -86.32  0.69079  131.63  0.86659  175.52
1920.000000  0.52010  167.91  0.66459  -39.08 14.43149  132.34  0.83150 -113.30
1940.000000  0.31248  110.42  3.71130  151.94  1.39478  -50.99  0.41372  149.47
1960.000000  1.25816  109.33 182.11496  -47.24  0.93995   22.09  2.16360 -127.39
1980.000000  1.62373  -37.04  4.49917  167.93  0.82408 -124.39  0.43196 -100.56
2000.000000  0.63092   64.27  2.67308 -121.56  2.38232  113.28  0.96701   74.79
2020.000000  1.02339  -42.16  0.91799  -10.98  4.19275  131.43  3.36930  125.11
2040.000000  0.63338   41.54  2.26794   52.05  1.50776  117.95  1.14328   41.96
2060.000000  1.23443  -78.41  2.04467  -63.87  4.67704  129.73  0.43479  164.25
2080.000000 10.21308   19.24  5.73075   38.67  2.53800  100.78  1.97054   -5.00
2100.000000  0.08597   25.07  0.98792  179.05  4.39692 -178.87  1.29689   73.16
2120.000000  1.79586   -6.66  1.27593 -168.56  3.50657  -42.05  0.86050  -55.10
2140.000000  0.79825  -75.46  3.34282 -124.98  2.87407   74.52  0.97480  -57.37
2160.000000  0.33527 -169.75  1.87427  137.61  1.78935  110.01  0.38840  129.35
2180.000000  1.19757  126.87  3.17712   63.27  2.99160  174.28  1.73459   97.44
2200.000000  1.15827  122.13  6.20409  -43.20  5.82390   -5.19  0.76896  112.58
2220.000000  1.18338 -120.35 289.73285  -45.08  1.67545   16.48  0.62496  -48.17
2240.000000  0.30703 -122.89 398.61007  -55.18  1.94336 -148.58  0.45202 -103.86
2260.000000  2.15986  156.38  4.62829  -43.81  5.30784   80.30  4.88611 -157.11
2280.000000  0.76769   89.86  3.03581  108.05  2.61523  -26.68  0.45165  114.11
2300.000000  0.39981  -95.21  2.86981  125.64  2.75749  171.91  0.22594  -60.55
2320.000000  0.79207   89.10  5.22251  120.22  1.50105   68.60  0.55747   69.27
2340.000000  1.57959   75.40 11.90637  104.35  2.16391 -149.77  0.40300   97.42
2360.000000  1.07822   88.76  4.09116  161.89  2.48998   23.64  0.23327   67.40
2380.000000  0.85607  101.94  5.08575  -95.53 10.04950  -95.33  1.21660   72.04
2400.000000  1.05360   51.27  1.97538  -47.33  7.44064  145.98  1.20229   58.54
2420.000000  1.39498   23.18  4.28916  172.41  1.92625 -163.53  0.75467   83.33
2440.000000  0.11061  -79.55  3.87666    1.05  4.44266  110.92  0.17593 -105.41
2460.000000  1.50888  123.61 1223.31140 -126.06  2.34284   96.01  1.59184   92.72
2480.000000  0.25344 -123.38  6.01647  -24.50  2.37583 -159.68  0.17470 -138.87
2500.000000  0.86128  158.68  7.96424  153.26  7.01654  -21.53  0.53653 -175.86
2520.000000  0.62276  170.51  1.98733 -178.42  1.30524  172.30  0.41830  156.29
2540.000000  0.32570 -148.68  2.09600   31.33  6.03371   39.20  0.29564  140.33
2560.000000  1.01736  171.05  1.90485  145.08  2.29700  141.26  0.44411  171.77
2580.000000  0.39666   78.28  6.91164  -42.62 12.57722  117.66  0.59074   88.67
2600.000000  0.80068   87.08 454.54584   27.21  2.19717  157.37  0.29979   47.57
2620.000000  1.61041  142.41  5.88777 -121.17  1.68841 -164.43  0.65378 -155.79
2640.000000  0.70555   36.04  5.04023  169.77  1.00495    6.47  0.35634   41.90
2660.000000  0.53354  -72.17  2.05762  -87.88  1.84160 -130.20  0.68988   39.17
2680.000000  0.06231  -36.12  1.80244 -166.98  2.70591  150.74  0.08422  -28.44
2700.000000  0.74190  100.00  3.84088  131.01  1.25668  109.06  0.34457 -120.01
2720.000000  1.48474   33.38  5.28888   60.13 15.40379 -143.82  1.69957  114.97
2740.000000  4.03424   70.08  9.51255  -43.99 16.25128   87.54  3.64473   27.39
2760.000000  1.21586  176.95 17.43546 -133.04  2.10431 -128.54  1.08412  179.30
2780.000000  0.34229  134.46  3.28575  -40.09  3.57287  -18.97  0.52730   91.10
2800.000000  1.42678  151.99  7.85961  -69.85  5.70279  146.21  1.14334  157.90
2820.000000  0.31845  157.77  9.12446  -60.68  6.99566  -55.05  0.35622  141.19
2840.000000  3.95686  -64.52 17.92448 -117.54  9.10914   63.89 14.54018   -0.56
2860.000000  0.58467  164.97  2.10402 -139.57  4.08589 -151.79  0.76294  123.97
2880.000000  0.45995   38.80  3.81465 -117.48  5.15826   98.14  0.19565   65.89
2900.000000  1.03538   55.07  9.98210   24.98 22.95394    4.50  1.16249   56.41
2920.000000  0.44813  -27.88 892.80485   12.66  5.49045  -37.49  0.50412  -33.09
2940.000000  0.80743    3.67 22.11498 -167.07  7.50885   12.42  0.82129    1.80
2960.000000  0.32999   36.32 11.39095  175.08  6.46134  -18.02  0.32738   38.60
2980.000000  1.63258   63.38  9.11326  -64.24 11.54427  153.76  1.81914   95.52
3000.000000  2.41220  -62.98 51.95059  -68.68 16.67110  -57.17  2.18787  -56.01
