# MHz S MA R 50
!   freq        S11              S21              S12              S22       
1000.000000  0.46321   12.06  1.34086 -175.60  2.29959 -174.61  0.65778   73.10
1020.000000  0.02113   82.31  0.13999    4.52  0.10747   26.20  0.04358  123.63
1040.000000  0.38483   75.35  0.76085 -117.04  0.83427 -125.98  0.14554    2.90
1060.000000  0.56909  -96.03 76.12092  -11.57  0.88083   92.38  0.22483  -91.15
1080.000000  0.08328  156.12 192.36368 -163.30  1.71652  116.44  0.14482  178.71
1100.000000  0.07810  153.90  3.14786  -22.54  0.89657  -12.17  0.10241  158.51
1120.000000  0.89969  -98.87  3.79688   65.18  0.49427   30.43  2.01093  179.46
1140.000000  0.76022   92.85  0.49451   60.14  1.68925 -155.91  0.72875  109.65
1160.000000  0.18818   90.59  1.51058 -161.20  2.39142  177.32  0.30801  122.93
1180.000000  0.45449  131.20  0.46619  -36.81  0.13657  -96.14  0.60167  108.49
1200.000000  1.37216  156.10  0.83620  -76.81  0.88448 -118.33  1.35221   82.86
1220.000000  0.49949   64.58  0.42261  166.58  1.24686 -133.59  0.22862   58.26
1240.000000  6.43373   27.63  0.58911   44.23  1.70697   75.61  1.22014  -25.60
1260.000000  0.74632  -90.24  8.71294 -177.28 122.67836 -127.23  0.74435  -87.71
1280.000000  1.16087  -76.88  0.94095    9.74  0.60459  179.71  0.75468  -76.99
1300.000000  1.17255  -57.85  0.73893  -18.92  3.36647   19.98  1.38493  136.46
1320.000000  1.17950   82.34  0.84146 -131.00  0.80081 -102.06  1.99506  123.65
1340.000000  0.43233  103.04 45.93019  -71.55  3.28015  -72.76  0.24708   97.50
1360.000000  0.29370 -120.13  1.25312 -125.25  0.54335  -68.88  0.15786 -125.29
1380.000000  1.22670   85.01  2.39611  168.51  0.52251  146.96  0.56040   67.33
1400.000000  1.24382  -78.23  2.70028 -160.99  1.60105 -146.22  0.68130 -126.56
1420.000000  0.10862   69.99  0.67676  142.33 33.79203 -159.41  0.20471   93.74
1440.000000  0.94621   93.83 14.50758  153.42  1.99205   91.40  0.84675   90.78
1460.000000  0.26492   64.05  0.97667 -160.17 15.24177  163.69  0.81475   80.43
1480.000000  0.33413  -58.87  1.40282   47.73  2.22746 -151.43  0.28280  -85.65
1500.000000  1.17063 -132.25  0.57348  -59.88  0.93425   93.45  2.26456  -54.63
1520.000000  0.97575   69.28  8.34428   96.02  4.26184  128.49  0.87697   74.54
1540.000000  0.81527  -71.61 148.44844   66.18  1.97283  131.50  0.77042  -62.26
1560.000000  1.49925   73.50 249.37249 -161.97 436.67873 -177.18  1.50399   73.75
1580.000000  0.25956  -55.17  0.66526 -121.77  1.41133  -44.21  0.66775  -62.90
1600.000000  0.56911  -92.01  6.92550  -78.42 145.85069  156.38  0.62566  -96.73
1620.000000  1.11679   91.88 244.26101  -69.04  0.61082  -42.28  0.63275  110.15
1640.000000  0.10709 -161.67  2.42495  -13.81  3.32949  -21.83  1.48102   61.72
1660.000000  0.53436  -97.64  1.09831  -75.22  2.87037   92.35  0.84962  -75.42
1680.000000  0.42723  158.72  0.64097  -75.64 18.72621 -126.80  0.87748   94.87
1700.000000  0.12281  111.27  1.18222  145.38  0.62454 -111.74  0.22211 -168.79
1720.000000  1.34007 -127.76  0.83752  110.06  1.07784  108.71  0.62637  -65.06
1740.000000  0.76012  103.39  3.00500  123.86  1.04527  104.44  0.54300  161.32
1760.000000  1.91794  -76.24  1.56696 -130.73 202.68092  113.48  1.20311  -77.54
1780.000000  0.58497   50.39  1.00083   64.38  0.46876    8.25  2.16802  -60.06
1800.000000  0.78774   35.10  0.81618 -149.35 168.92272  152.46  0.95632   69.31
1820.000000  0.22274    4.53  1.56520  132.09  4.17562 -114.28  0.31247   14.39
1840.000000  1.43754  -91.83  4.16114  -61.13  2.08791  140.71  1.06779  -96.49
1860.000000  0.15417  145.00  0.59271   16.13  2.00461 -118.28  0.81528   93.23
1880.000000  0.71405  -99.73  4.17919   27.03  4.86811  142.30  0.83297  -91.63
1900.000000  0.74868   71.58  1.73496   60.98  3.51926  -90.39  6.55719  141.15
1920.000000  0.84648 -112.51 11.95684   55.56  0.68180  -79.76  0.38030 -112.77
1940.000000  0.51620   90.21  0.89639  -42.21  0.69743  -48.96  0.22829  156.73
1960.000000  2.08719   17.99  0.62926   21.07  0.99648   54.48  0.15846  111.65
1980.000000  0.76225  -85.62  1.98806  -95.30  4.14810 -121.49  0.42997 -143.00
2000.000000  1.20241  120.70  3.42576  135.07  5.11516   41.52  1.47960  121.96
2020.000000  0.80556  -79.09  1.24836  -11.99  3.06777 -103.01  1.33352 -149.84
2040.000000  0.24216  -30.72  1.21575   50.10  0.87299  105.12  0.12822   94.70
2060.000000  1.43903  -39.68  1.49583  -35.78  3.17442    9.66  1.19080 -120.64
2080.000000  3.88299   37.25 391.90226  -40.99  0.83399   53.14  0.77291  -98.65
2100.000000  2.65784  127.21  3.35357   -0.36  2.77792   12.77  2.99679   57.45
2120.000000  0.60580  -61.12  5.46523  -31.85  1.10531   23.12  1.09769   -9.19
2140.000000  0.81225  -76.20  7.22113 -102.71  1.15271   83.09  0.64625  -97.41
2160.000000  0.60955   71.93  3.22732  153.00  2.23048  172.48  1.45056   58.38
2180.000000  9.02573  -23.16  2.25231   17.59  3.71590 -104.98  2.44776  106.28
2200.000000  0.41036  152.93  0.83389  -31.35  1.68438   -2.12  0.54465   90.21
2220.000000  1.24668 -114.95 17.85190   -2.38  2.36076   11.85  1.26554  -87.69
2240.000000  0.30670 -122.72 377.52760  -57.87  4.70369 -158.34  0.30396 -115.99
2260.000000  2.19001  173.42  2.67189   58.56  5.04060   68.45  8.35381 -134.89
2280.000000  0.41181  100.99  1.48682  132.90  2.56923   87.29  0.88755   69.78
2300.000000  0.29440  -88.06 26.38637  -58.40  1.56639  101.66  0.41956 -158.15
2320.000000  1.36176   66.84  4.82940  -89.36  8.92350   61.59  1.11112   88.22
2340.000000  0.87860   95.60  2.48909  -72.08  9.64887   81.32  1.09796   59.77
2360.000000  0.99677   69.14 598.74164  -60.87  1.97861   -4.03  0.65966   31.99
2380.000000  1.58862  114.39  2.88314  -59.33  3.13836   78.07  0.45961 -141.45
2400.000000  1.54711   78.38  8.30024  126.29 15.08373  150.15  1.47723   52.05
2420.000000  1.20984   59.31  7.89306 -177.77  6.30170   -9.20  2.12611   50.62
2440.000000  0.15267  -82.11 500.45131   73.68  2.63131  145.59  0.12935  -65.96
2460.000000  1.28672  123.93  4.98707 -118.66  1.63209   97.90  1.22133   36.58
2480.000000  0.31160  -66.06  3.49814 -170.37  2.48049   -6.13  0.54816 -135.09
2500.000000  0.27112 -164.68  2.01932  -73.39  3.29667  125.51  0.48678  140.83
2520.000000  0.70097  116.78  2.90297  165.85 12.33791  -27.87  0.77506  139.38
2540.000000  0.24317  150.86  5.99508   39.41  5.92117   53.42  0.23131  146.43
2560.000000  1.41463 -118.01  2.39001   32.88  6.88723  -41.53  3.92057 -178.52
2580.000000  0.59978   86.04 12.44161  -75.25  0.96542  131.84  0.21301   44.26
2600.000000  0.67670   93.74  5.27335  134.63  8.54274    7.81  0.72668  105.31
2620.000000  1.42355   57.96  4.38328    9.17  3.33446  155.12  1.16318  -34.14
2640.000000  0.50572    2.17  1.60287   57.10  7.12349   26.42  0.87487   19.65
2660.000000  0.41391  -23.70 21.48294  -69.64  3.71228 -129.46  0.39315  -72.53
2680.000000  0.19105   18.27  8.18041  -27.51  3.71932 -175.09  0.43039  -32.60
2700.000000  1.26005   49.25  3.02265  -59.57  1.78496  149.64  1.88846  -79.76
2720.000000  1.22710   67.62 36.87407   12.56  1.26949 -142.41  0.77032  -27.40
2740.000000  5.45089   34.86 15.72604   92.32 17.80457   73.78  4.31093   58.12
2760.000000  1.23670  171.36  5.27334   35.80  5.91532 -138.07  1.00426 -179.66
2780.000000  0.50438  132.77 18.24747  -18.56  5.41254  133.54  0.27606   96.52
2800.000000  1.36585  131.20 19.23523  168.06  5.96488  120.77  1.44611  154.02
2820.000000  0.39992 -170.13  1.32642  130.36  4.38041  118.87  0.27534  163.85
2840.000000  4.79777  -49.22 641.79207  -47.12 20.16005 -153.62  3.82789  -33.76
2860.000000  1.25902  140.66  2.20977   31.93  4.45851   83.87  1.24028  139.52
2880.000000  0.31418   36.20  3.28533 -142.41  5.35610  101.09  0.20878   55.97
2900.000000  1.23075   62.12 19.80581   42.87 19.87091 -156.60  1.18520   60.91
2920.000000  0.46037  -24.26  9.78894   99.14  3.53314  -63.97  0.75914  -44.20
2940.000000  0.82684    4.04 11.65855 -158.28  3.18721   -8.28  0.90359    0.40
2960.000000  0.35157   33.74  9.51643   27.47  3.94676  -27.21  0.35325   10.54
2980.000000  1.38219   87.60 57.44311 -158.43  8.36404    2.57  1.67904   73.23
3000.000000  1.23703   43.20  2.86173 -108.10  6.70260   80.99  0.28170  -62.25
