# MHz S MA R 50
!   freq        S11              S21              S12              S22       
1000.000000  0.45103   93.41  2.29298    7.53  1.04401    7.23  0.22627   42.37
1020.000000  0.03951   80.80  0.28287   20.51  0.91505 -175.77  0.03298   76.98
1040.000000  0.87355  115.59  0.28490 -114.99  1.96332 -119.08  0.48424   92.33
1060.000000  0.45548 -128.88  0.73091   77.20  0.96211   83.57  2.25889  -64.30
1080.000000  0.10318 -148.48  1.00297  -82.25  3.36926  -73.12  0.09204  161.39
1100.000000  0.06894  140.97  0.42254  -59.27  0.85596  157.89  0.05418  117.98
1120.000000  0.96716  -90.88 10.08878   31.04  1.27619 -136.66  0.18634  -52.15
1140.000000  0.41472  150.98  0.10816  158.83  0.55756   47.36  0.34142   60.55
1160.000000  0.09181  126.73  1.21147 -153.82  1.11107   24.82  0.33645   63.36
1180.000000  1.04761  122.13  2.20008   -4.21  3.40115 -168.43  0.99059   94.15
1200.000000  1.35966   42.58  1.46070  133.71  0.62913   28.04  1.32694   70.34
1220.000000  0.31917   48.01  0.75987 -177.09  0.29777   57.36  0.28980   15.97
1240.000000  1.94860  -84.46  9.09954 -106.40  0.95778   53.87  1.43336 -142.34
1260.000000  0.74607  -87.87 52.10916  150.83  1.31260 -125.81  0.61215 -106.35
1280.000000  0.74701 -133.71  0.33997  109.12 90.95216   89.41  0.91621  -86.13
1300.000000  3.46902  -23.65  1.45664 -164.06  2.38100   16.21  1.29929 -103.82
1320.000000  1.41241   76.46  0.73198 -166.58  9.95911   99.54  1.50967  107.38
1340.000000  0.40209   99.91  2.19167  125.11  2.25487 -111.41  0.50976   94.21
1360.000000  0.22975 -106.89  0.91311 -171.02  1.01327  -51.58  0.26064 -136.15
1380.000000  1.35100   57.83  1.08367  165.03  0.33747   86.74  1.44895  136.93
1400.000000  0.91460  -85.13  1.15072  -45.60 96.92089  154.22  0.95104  -96.97
1420.000000  0.14034  101.94  0.97083   90.71  2.93690  155.09  0.15187   93.89
1440.000000  1.32072  107.82  3.22994  157.08 217.73152   76.29  0.94207   86.11
1460.000000  0.88898   86.36  1.90259  -59.33  2.04785  -14.27  1.10761   76.85
1480.000000  0.18115  -92.25  1.44753   45.84 207.11827  -63.55  0.30709  -78.44
1500.000000  0.87365 -101.12  0.77668  104.33  0.31803  -19.47  0.68544  -53.57
1520.000000  1.03601   62.73  6.11520  -59.73  1.17494   23.61  0.79505  104.13
1540.000000  0.82098  -71.55 184.13731    6.85  0.94599  103.73  0.56207  -81.33
1560.000000  1.54204  105.27  1.12973   38.48  0.97114   44.41  1.12719   44.80
1580.000000  0.60557   -8.75  1.36803  -77.58  3.49103   37.92  0.72132  -81.97
1600.000000  0.55115  129.06  1.12990   94.08  2.52815   71.38  0.78836 -102.90
1620.000000  1.27548   84.35  4.18865  -36.25  1.13367  -48.28  0.99109  131.57
1640.000000  1.52699  106.14  4.63602   12.64  0.98027 -173.30  0.29212  122.33
1660.000000  1.36675 -136.15  1.58794  -95.71  4.36556 -116.73  1.18893 -102.96
1680.000000  0.99518   91.54 215.15162   85.39  2.17372   13.43  1.24456   65.68
1700.000000  0.14925  170.61  0.77740  -40.74  3.52411   53.22  0.16417  112.69
1720.000000  1.88313   53.48  0.90160 -140.84  1.20928 -163.06  0.40553   21.03
1740.000000  0.56390  122.27  0.72486  111.50  5.24921   96.22  0.85338   68.38
1760.000000  0.68782 -122.88  1.37187 -147.56  7.65697   64.68  1.08149  -80.97
1780.000000  2.61799   48.49  6.31687 -130.85  0.78597  -10.13  0.15083  -73.63
1800.000000  4.02532 -172.72  1.11717 -117.85  0.80562  -62.50  0.24317    0.78
1820.000000  0.46231   66.59  3.56141   76.14  1.21174  -31.56  0.24486   55.38
1840.000000  1.61356  -24.26  1.91237   43.52 231.39468 -113.29  2.11701  -61.27
1860.000000  0.53754   42.25  4.45245   64.13  1.66838   44.18  7.43382  168.71
1880.000000  0.35596  -12.94  1.72802  113.81  2.10369  -12.57  0.80523  -90.03
1900.000000  0.78722  155.30  0.92713   67.18  2.06187  147.72  2.93037  -68.56
1920.000000  0.56815  163.10  0.82128 -115.61  1.71643  -93.47  0.94649 -137.11
1940.000000  0.20473  145.47  4.14196  -60.75  1.34671   -6.79  0.26029   51.14
1960.000000  0.95570  124.82  2.38094 -152.88  5.62890  -18.28  1.42906  121.03
1980.000000  1.09074  -91.17  1.57892 -124.49  2.05011  -93.75  2.54677   70.60
2000.000000  0.89569  102.62 275.49482  -51.67  1.81858   36.38  0.43530   71.34
2020.000000  0.41461  -25.05  5.29919   13.40  1.64397  -40.53  2.15360  -14.79
2040.000000  0.72948   77.43  5.22394   66.83  4.47895   84.68  0.91473   91.29
2060.000000  3.60537  -92.51  7.07579  142.41 11.04336  111.91  3.16295  -52.00
2080.000000  2.98540   16.91  4.07337 -128.74  3.13255   32.52  1.55605  -22.37
2100.000000  2.39127   91.34  1.61030   29.63 10.06706 -143.50  1.15533   77.91
2120.000000  0.77250  -43.01  2.41737  -58.81  6.08787  141.32  0.96001  -58.85
2140.000000  1.39334  -30.47  1.40355    3.35 10.74663   72.68  0.93128  -64.54
2160.000000  0.84705   94.28  5.91988  146.36  2.23438  100.48  1.43572  105.35
2180.000000  1.72148   58.07  2.77161 -145.18  1.98389    8.59  1.75121   -5.95
2200.000000  1.10860  117.15  4.15999  -66.48  1.49115  -66.32  1.15071 -138.64
2220.000000  4.00140    4.41  1.69892   63.76  4.43722   -1.03  1.77547 -158.97
2240.000000  0.33270  -49.55  2.47172    8.92  2.21251  171.47  0.23690  -81.91
2260.000000  2.82212 -145.57 18.24802 -120.92  4.08318 -102.42  1.81296 -167.35
2280.000000  0.81438  105.70 96.49563  -38.10 33.46606  176.42  0.75122  107.76
2300.000000  0.22493  -81.19  3.34660  117.27 26.96680  144.36  0.29542  -86.17
2320.000000  0.94095   54.48 10.75722   22.79  2.10078   81.34  0.42684   35.58
2340.000000  1.25429   92.60  7.58247   22.28  5.65194 -149.78  0.93292   71.10
2360.000000  0.76457   74.36  4.45190  145.60  4.90909 -156.48  1.24625   46.22
2380.000000  0.45758  104.41  3.49679  137.73  6.56687 -106.97  1.15618   81.83
2400.000000  1.58090   37.40  7.53178  143.78  5.38398  -51.35  0.94286   45.86
2420.000000  0.37514   -4.60  2.81167 -158.97  1.55573 -150.72  3.95395   -4.99
2440.000000  0.13069  -88.70  5.14284   98.19  1.32013  129.10  0.25354   98.64
2460.000000  2.37446   39.05  2.82504  106.94 16.80935   76.59  1.49747  131.16
2480.000000  0.26222  175.95  2.22670 -166.70 10.84512 -148.53  0.32203 -114.90
2500.000000  0.39070  160.90 699.40139 -138.32  2.23133  -94.40  0.94089  122.41
2520.000000  0.68237  126.57  5.67456  171.88  6.48483   18.45  0.54968  144.54
2540.000000  0.32553  160.82  6.58693 -145.65  6.61602   77.13  0.34578  156.73
2560.000000  0.49158 -170.02  1.58225  150.91  2.43788   -8.90  2.74582 -126.28
2580.000000  0.24520   25.12  1.12456   76.51  4.64374   80.58  0.36445   96.56
2600.000000  1.11052   78.25  8.62358  139.42  1.74527  121.87  0.34923   96.02
2620.000000  2.61804   97.57  7.03851 -136.52  2.52292 -126.85  0.87353   36.16
2640.000000  1.01099   -7.90  2.44858   54.42  1.43309   -2.55  3.43143   99.91
2660.000000  0.45889  140.73  0.91344 -108.26  3.63449 -121.99  0.27190  -35.47
2680.000000  0.25341  123.33  2.53414 -171.95  7.49494 -177.18  0.19488   -3.00
2700.000000  0.42289   42.43  2.02497  138.64  8.88110   84.83  0.97548   88.70
2720.000000  0.65210   48.44  2.40521  -99.76  9.04363 -106.58  1.06763   66.83
2740.000000  4.88220  179.28  4.00145  -90.77  3.27764  -85.53  2.77917  -27.31
2760.000000  1.24887  173.18  5.30231 -151.71  6.04915 -159.34  1.17367  176.13
2780.000000  0.45248  125.25  8.15822   88.29 734.01269 -179.39  0.49343  127.43
2800.000000  0.86504  144.30 16.92216  147.47  2.00456  145.49  1.05867  177.93
2820.000000  0.16830  147.70  2.53774  -10.90  3.61023  -18.25  0.35794  136.63
2840.000000  1.35776  -34.89  4.46740   55.80 40.58802   42.84  5.07201  -56.14
2860.000000  1.22084  127.68  9.10464   56.21  3.97673   27.87  1.63523  128.43
2880.000000  0.33141   80.90  2.69115   62.56 19.09657   80.99  0.24422   58.11
2900.000000  1.21022   53.46  6.56263   32.35  5.10149   49.81  0.96911   53.18
2920.000000  0.45546  -31.73  6.14313  -45.06 12.33132  -79.89  0.47149  -32.19
2940.000000  0.87245    3.51 14.91462   12.26  3.15417    3.75  0.88525   12.27
2960.000000  0.30927   40.97 11.31740  -11.89  4.15821  177.26  0.27712   35.39
2980.000000  0.86278   53.82  3.18491   -3.25  4.62937  163.73  1.20761  124.45
3000.000000  2.07664  -73.52 15.79591  -92.21 13.43261  -99.18  1.91967  -74.52
