# MHz S MA R 50
!   freq        S11              S21              S12              S22       
1000.000000  0.58391   84.26 260.19588  -91.07  3.40073 -172.23  0.34417   87.61
1020.000000  0.04952  114.78  0.16469  167.98  0.97630   -3.01  0.03205  129.43
1040.000000  0.29607   98.58 41.51189  -47.80  0.30691 -158.46  0.25629   85.85
1060.000000  0.51229  168.47  3.36206  -90.56  0.11456   58.72  0.22973   38.05
1080.000000  0.08667  156.86 12.01084  114.42  0.61114  120.64  0.08638  119.72
1100.000000  0.07359  147.37  0.32931  178.51  0.76801  -37.19  0.06639  118.24
1120.000000  0.68712  -80.55  0.97783 -164.03  0.41207   70.91  0.81839 -106.32
1140.000000  0.06405   43.91  0.90541   40.51  1.27076 -125.83  1.19442  104.26
1160.000000  0.25870   74.10  2.59326   23.88  0.49214  160.55  0.32512  107.68
1180.000000  0.75041  105.19  0.35908 -159.81  1.49693   18.72  1.23602  109.87
1200.000000  1.15939   85.60 147.72839   40.55  4.94179  -82.29  1.36556   54.97
1220.000000  0.63922  104.86  0.71609 -160.41  0.67135 -120.84  0.46976   62.02
1240.000000  0.57179 -135.55  0.17437   46.99 130.65627 -142.05  2.11572  -76.95
1260.000000  0.64802  -62.84  0.31690  -81.08  1.27727   41.46  0.55110  -82.25
1280.000000  0.48366  111.12  0.47428   33.09  1.46238   46.76  1.62412  -69.00
1300.000000  2.08734 -164.32  0.50314   39.69  2.03671  137.46  2.63043  -52.78
1320.000000  1.30955   94.94  5.73333  128.65  0.58486  128.61  1.70224   14.53
1340.000000  0.27769  109.45  0.29758 -165.05  0.64173  -56.47  0.29293  108.58
1360.000000  0.26496 -109.63  3.13934    1.46  0.42567   81.37  0.22249  -92.74
1380.000000  0.41767  154.54  1.51042   36.87  2.09467   -5.31  1.65582  -86.12
1400.000000  0.94728  -97.88 104.49401 -150.58 15.44030  -18.65  0.88140  -97.77
1420.000000  0.32651   94.91  1.20222   23.27  0.89505   32.58  0.12544   86.43
1440.000000  1.74828   84.10  0.47938 -104.36  1.75996  -99.83  0.79233   69.54
1460.000000  0.62014  109.38  1.04997  -71.09  1.30620  159.44  0.73959  119.84
1480.000000  0.30112 -103.74  1.66897   94.10  0.92298  133.11  0.19608  -72.46
1500.000000  0.69244  -37.99  0.42105   -6.79  1.04178   11.63  2.19930  -52.33
1520.000000  0.91683   86.44  1.80980  103.49  0.70752  114.21  1.10839  100.33
1540.000000  0.81821  -96.48  4.15761  -89.82  0.37452  148.25  0.49696  -73.03
1560.000000  0.68581   91.10  0.86761   92.12  1.48982  -79.60  1.91196   18.12
1580.000000  2.95409  -37.75  0.35193 -105.98  2.94279   45.72  0.78873 -103.80
1600.000000  0.55034  -87.64  2.79869   -4.78  0.76871 -173.18  0.51161  -56.55
1620.000000  1.28382   49.12  4.08426   92.32  0.63861  -45.33  0.65509   50.69
1640.000000  1.14237  111.24 386.19625  -22.86  3.16366  -88.27  1.29777  103.07
1660.000000  0.49099 -157.98  0.73327    7.86  0.91695  -85.76  0.21757  168.46
1680.000000  1.02965  -57.93  0.67915   12.43 147.24631  145.48  1.01531   93.31
1700.000000  0.26566   93.95  1.42827   66.70  3.45966  142.16  0.26476  112.88
1720.000000  1.07540  119.67  0.72397  174.26  1.37624 -148.87  1.08331  -38.57
1740.000000  0.16697  -16.89  1.21239   99.65  5.22033  154.39  0.93757  104.25
1760.000000  0.42389   26.59  1.05684 -157.88  1.75963 -123.82  1.05501  -50.60
1780.000000  1.40373   86.01  1.38393   79.00  3.38333 -123.85  2.08837   44.89
1800.000000  0.40170   60.82  2.70254  -49.76  3.43435   15.03  0.31349  159.85
1820.000000  0.24294   51.58  1.44529  -58.84  1.11623   61.23  0.33079  177.71
1840.000000  0.57962  -93.81  1.30841  144.38 257.36834  -21.55  2.10602  -61.39
1860.000000  1.31132   34.57  1.57061   17.71  1.53991  -57.73  0.69879  104.38
1880.000000  0.42631  160.13  1.02730  -50.15  1.78875  149.02  0.53892  -33.69
1900.000000  3.65213   81.28  6.61822 -116.15  0.87863   88.95  2.53880    5.24
1920.000000  1.62464  -75.97  1.64673  -26.34  1.75378  -81.74  0.23439  143.72
1940.000000  0.68139  152.61  0.81371   -5.82  1.24846  -93.58  0.14979 -152.49
1960.000000  1.69632  178.31  0.95977   48.14  0.73500   43.25  2.11476   51.28
1980.000000  0.70210 -163.40  2.43565 -108.10  5.38052  -24.76  1.10703  -71.53
2000.000000  0.64903  100.06  4.41697   54.46  1.33881   78.20  1.75199  144.35
2020.000000  3.95878 -105.43 257.33305 -111.17  5.73119    8.80  2.52368 -102.07
2040.000000  0.89138   80.68 200.83190   46.07  1.38899  142.14  0.74265  107.71
2060.000000  3.82497   -3.94  5.53384  108.92 12.31497  -20.48  3.32826  -65.95
2080.000000  3.68308 -138.87  2.72904  106.25  6.11311   74.84  5.87821   56.55
2100.000000  1.92310  123.80  1.64278  179.13  9.82790 -144.91  0.82871   67.29
2120.000000  0.70761  -67.72  5.65615   -8.77 312.00021  -69.55  0.80843  -65.48
2140.000000  0.84910  -69.41 43.77401   25.29  5.43739 -145.71  0.93583  -15.43
2160.000000  1.16261   65.58  1.82732  104.47  1.08114   82.24  0.71352   39.25
2180.000000  5.01158   65.84  6.14349   59.26 376.65569  -36.51  3.35875   82.80
2200.000000  0.93504   98.12 438.28423  -64.85 68.71830 -144.24  0.93399   99.72
2220.000000  0.80726 -123.95  3.91443   91.27  3.33109   62.82  2.45529 -131.07
2240.000000  0.32621  -73.99  2.79036   79.63 11.80286   26.32  0.29169 -123.70
2260.000000  1.52202 -154.09  5.26943   45.13  1.30967   62.94  1.21062   14.45
2280.000000  5.45423    2.86 13.24066  -61.33 69.30572   87.61  0.77002  105.65
2300.000000  0.28014  -87.85 17.82594  113.77  2.05256  108.38  0.36864  -57.03
2320.000000  0.87701   94.65  2.64508  106.75  6.66926   64.43  0.76198   66.68
2340.000000  0.52668   85.36  1.34919 -111.66  1.78657 -144.41  0.68190  124.49
2360.000000  0.73504   70.55 14.45756  -12.08  2.28718  160.90  1.78065   17.70
2380.000000  0.67347   63.29  1.86222  102.99  9.17239   60.59  1.70950  101.85
2400.000000  1.42529  165.88  5.09391  -39.04  3.17556  -12.45  1.18931   88.62
2420.000000  1.11287   70.62  5.39711  152.29  2.04064  179.29  1.21007 -106.17
2440.000000  0.13261  -86.65 10.56750   95.94  2.62771  175.01  0.23498  -83.43
2460.000000  0.41868  107.81  2.09032   58.23  1.65840   53.35  0.52556   90.70
2480.000000  0.22475 -106.72  7.22738 -147.30  2.56546  -39.27  0.12714  131.36
2500.000000  0.39153  161.09 351.76895 -157.34 18.45080  -30.37  0.40224  161.88
2520.000000  0.77912  154.90  7.48273  130.94  1.68210  177.69  0.17308  120.85
2540.000000  0.15285  153.55  5.85870   47.91  2.21449 -144.38  0.28211  174.30
2560.000000  1.40345 -146.62  1.64735   12.97 416.25377  -86.44  2.88260 -171.79
2580.000000  0.45915  105.51  3.10072  115.49  4.34405   91.69  0.41978  116.34
2600.000000  1.30056   75.00  3.21975  -42.00  4.80573  -74.12  1.14986   88.87
2620.000000  5.28126  106.05  6.77997 -147.41  2.08213  167.23  1.01025  119.87
2640.000000  1.08217   45.65  3.45404 -169.01 23.76665   31.62  0.86031   30.78
2660.000000  0.33913  -28.23  7.67479   45.29  1.80799 -107.76  0.36952  -54.90
2680.000000  0.49881   34.55  7.53030    9.87  3.99655  -26.51  0.21556   31.16
2700.000000  2.05328  127.37  2.90651  147.31  2.48684  118.13  0.55973   67.95
2720.000000  1.06655  -68.29  3.79692 -139.55  0.95709 -138.21  1.22232  -34.04
2740.000000  1.51171  -52.52  2.54148  -49.45  1.36015  -61.05  0.97593  -22.45
2760.000000  1.08882 -177.59  4.07024 -137.70  3.16584   32.64  1.20213  170.74
2780.000000  0.25583  112.62  2.61807  -17.20  3.68430  125.19  0.66074  151.89
2800.000000  0.61310  123.45  2.78784  135.02 10.08141  -72.32  1.85271  149.38
2820.000000  0.36962  163.74 23.50667  -30.75  4.46145  -59.44  0.30880  127.53
2840.000000  4.27619  -94.05  3.71583   71.56  3.31817  -99.72  1.49657  -65.61
2860.000000  4.37470 -138.08  2.08367 -137.44  3.59795 -120.32  0.89836  127.83
2880.000000  0.33229   27.67  1.92285   59.80  9.40100   68.17  0.23679   52.95
2900.000000  1.21193   57.93 12.68347 -108.59 11.16691 -119.84  2.38687  -55.64
2920.000000  0.49309    4.09  7.53978  100.05 21.88007  -35.74  0.44983  -26.01
2940.000000  0.83478    4.95 11.33265 -165.29  3.14888    0.37  0.79846    9.21
2960.000000  0.32232   38.05 45.18099   -5.24  8.56529  -39.00  0.35164   35.57
2980.000000  0.88804  113.89  4.39265  -38.64  2.58661  -39.61  3.44696  161.81
3000.000000  1.60306  -97.64  7.33322 -104.47 25.49904   66.82  2.49788  -79.26
