# MHz S MA R 50
!   freq        S11              S21              S12              S22       
1000.000000  0.58002   84.39 180.79893  101.19  0.17488  172.20  0.56716   45.76
1020.000000  0.05678   92.20  1.02175  177.61  1.47559   -3.85  0.06724  105.27
1040.000000  0.18951   84.89  1.48018   55.36  2.35258   53.95  0.35058  105.42
1060.000000  0.46733 -113.73  1.07252   84.97 53.68089  -19.36  0.56894  -96.72
1080.000000  0.11107  170.89  0.73763  124.94  0.32288  -90.14  0.09938  -53.02
1100.000000  0.04283  127.09  0.34451  137.98  0.68942   87.33  0.09445  151.76
1120.000000  0.90152  -96.07 215.47633  135.40  0.72410   70.43  0.49515 -104.72
1140.000000  1.14259   77.93  0.41352  -47.07  0.56339   47.14  0.82493  117.98
1160.000000  0.27718   96.74  0.32864 -116.55  0.66213   29.60  0.25425   72.34
1180.000000  0.38014   60.17  0.12239  -68.65  0.50434  -23.55  4.31473  124.01
1200.000000  1.01866   19.63  0.37653  -93.38  1.13855  -96.00  1.89645   86.36
1220.000000  0.33182   48.59  0.84904 -165.93  0.21500   67.08  0.64690  144.37
1240.000000  0.65578  119.66  1.29322  128.01  3.95122   77.38  1.62222  -70.67
1260.000000  0.43884  -69.17  1.08296   39.88  0.74366   43.62  0.40461 -135.62
1280.000000  0.90845  -82.56  3.32141  -79.30  1.75355  -98.59  0.84192  -68.93
1300.000000  1.92385  -90.37  0.65753  127.67  0.66063  -25.76  0.96526  -85.42
1320.000000  1.02200  101.98  0.83215   80.01  2.26186  -89.82  0.98384   91.25
1340.000000  0.36622   98.43  2.25874   65.58  0.57990 -136.81  0.31455   95.84
1360.000000  0.25690 -109.99  7.05769   -7.90  1.45583 -156.92  0.29805 -135.39
1380.000000  0.92718  115.12  2.18282   56.14  1.32166   48.33  0.84896   93.70
1400.000000  0.57492  -73.36  2.62484  171.53  0.75908  -19.64  0.54497  -90.11
1420.000000  0.20547   92.86 216.25249   58.11  2.38037 -161.71  0.16612   84.71
1440.000000  1.44518   80.16  1.87644  -58.88  0.56346  170.87  0.36847   37.25
1460.000000  0.80336   83.76  4.31447  138.95  0.70251   60.09  0.54659   94.21
1480.000000  0.29504  -76.77  9.95853 -159.85  3.26384 -124.87  0.33365  -85.53
1500.000000  0.56582  -59.81  1.12604 -104.12  1.14082  -31.15  1.08911  -68.04
1520.000000  1.43331   92.43  2.17048  -77.83  0.59294   78.26  0.80091   67.27
1540.000000  1.11140  -58.58  4.00961  133.68 217.86334   96.19  0.82080  -71.67
1560.000000  1.90421   73.89  2.63745    5.69  0.85077  -73.63  0.49650  168.05
1580.000000  0.82584  -87.17  8.32196   82.50  0.92874   46.32  0.69130 -100.32
1600.000000  0.34082 -127.17  1.11160 -144.13  3.29868 -175.94  0.56480  -92.57
1620.000000  0.63227   89.45  0.85548  -62.53  6.46869  -78.80  1.03837   90.07
1640.000000  1.11978  112.17 36.00934 -175.05  1.68643   81.69  1.07438  139.92
1660.000000  0.31137  163.30  0.85397  158.70  3.88135    3.58  0.99166  -66.92
1680.000000  0.58334   94.87  1.26865 -171.05  0.92790  -68.09  0.51951   71.87
1700.000000  0.30235  155.17  2.45728  -20.19  1.50196  123.31  0.09753  121.41
1720.000000  0.26950   44.52  1.23821 -131.32  1.52048  126.81  3.98103   -2.70
1740.000000  0.67266  106.69  1.57825 -168.93  1.82921  101.51  0.84155  115.66
1760.000000  1.08978 -117.30  1.93256 -118.37  0.79675 -178.92  3.64113    2.08
1780.000000  0.53952   26.49  1.91626  137.46  2.81554 -149.90  2.20064   30.86
1800.000000  1.32538  145.36  1.01834 -133.94  1.42587   57.42  0.81290   83.81
1820.000000  0.39494   77.66  4.24896  158.49  1.14703  116.15  0.48689  108.85
1840.000000  1.75629  -93.81  3.91035 -169.48  1.69835  -22.52  3.20451  -97.97
1860.000000  1.49012   73.30 264.02384  -97.18  1.56327  144.85  1.13126   26.86
1880.000000  1.53063  -58.33  1.63678  159.02  1.70600    7.41  1.21493  -62.90
1900.000000  3.78822   91.29  4.42560  153.64  3.35372  119.89  2.21342   80.47
1920.000000  0.82006 -110.77 15.55917  141.58  2.82452 -122.43  1.33358 -116.32
1940.000000  0.46486  151.06  1.59177   -6.02  3.10804  147.40  0.25499  123.66
1960.000000  1.20244   46.17  1.09732   66.81  2.94472   -7.30  1.79409   83.89
1980.000000  0.76308  -93.42  1.27031   24.25  1.59661   63.80  1.36091 -145.46
2000.000000  0.89916  101.65 309.30395  -43.78  4.15209  -84.41  1.06009   99.44
2020.000000  3.36219 -145.63  2.87703  152.88  1.67688  -23.86  1.28496  -43.09
2040.000000  0.87708  101.16  2.18911  -80.37  6.46662   75.36  0.59627   61.89
2060.000000  3.74543  -28.05  2.96072  140.80  4.11169    9.01  1.89537  -94.47
2080.000000 51.79328   74.78  2.36245   64.71  3.88791 -151.09  5.06960  -15.00
2100.000000  1.47522   90.12  4.65803   20.65  1.18954 -166.04  0.68329  137.60
2120.000000  0.49923  -72.07  2.06693   13.52 20.12506  118.04  0.82802  -67.55
2140.000000  0.87115  -70.43 335.63376  -35.16  2.25640   13.73  1.12594 -114.99
2160.000000  0.78992   65.63 11.82158   89.09  0.76684  105.27  1.02879 -144.87
2180.000000  3.31038   82.17 403.37690  -29.13  2.26663    5.01 17.04974  -92.15
2200.000000  0.42939   99.70  1.89167  -72.46 11.86480  -37.81  0.89623   97.18
2220.000000  0.89334  -99.86  5.32672    3.72 11.51308 -114.79  1.24739 -122.18
2240.000000  0.19528 -148.75  1.78686   71.25  2.99787    4.47  0.22289  -94.59
2260.000000  0.99109  -92.44  1.87267  -86.78  1.74181   98.00 30.67615  -30.93
2280.000000  0.79261  105.80 504.35305   62.57 15.23947   -6.72  0.75206   98.14
2300.000000  0.30215  -83.35 11.00476  107.82 61.52549   92.48  0.28594  -87.34
2320.000000  1.02542   86.29  3.93095   57.33 27.40540 -121.59  1.01704   73.50
2340.000000  0.88136   83.53  6.01262  103.41 14.97035   24.78  1.03730   68.04
2360.000000  0.79905   87.26  2.07454  -23.04 15.40247  143.92  1.04853   71.99
2380.000000  1.36102   65.60  5.01567  -67.96 30.62017   79.53  1.08389   80.73
2400.000000  1.82091   47.82  6.29100  113.31 10.80036  -10.18  1.54117   37.61
2420.000000  0.84774   52.98  2.57544 -166.59  2.57018 -163.49  1.01467   92.93
2440.000000  0.15110  -82.12 589.28773   80.41  3.77105   96.68  0.04579  -93.00
2460.000000  2.23885  125.32  4.10680   85.49  2.75185   97.38  1.12465  113.35
2480.000000  0.20195 -132.04  3.43996 -151.69  4.90462  143.19  0.32258 -107.02
2500.000000  0.20039  159.58  3.83738  -32.62 66.33261  -48.16  0.39572  160.83
2520.000000  0.46948  141.88  2.85010  129.14  6.06434  155.03  0.63062  171.23
2540.000000  0.16730 -167.21  3.17011   48.19  1.62588   81.28  0.04794  122.75
2560.000000  0.87484  -89.98  2.05661   22.22  4.94816   23.66  5.21360  138.78
2580.000000  0.26556 -135.57  2.26994  132.54 475.32832    0.80  0.51106   85.27
2600.000000  0.48664    8.12  2.35725  -59.37  1.61812  141.95  0.45657  154.12
2620.000000  1.37846  167.07  1.34700 -148.95  3.35640 -146.00  4.79218  167.20
2640.000000  0.89276   31.45 431.86506  -86.92  2.14687 -143.33  1.14676   65.71
2660.000000  0.39225  -24.16 543.09687 -174.81  4.22239 -147.56  0.57689  -30.24
2680.000000  0.20684    4.65 452.65484   74.62  3.80731  160.44  0.19313  -14.28
2700.000000  0.43705  106.47  2.31626   81.89  8.33750   90.15  0.89813   84.34
2720.000000  0.89284   60.39  6.09243 -156.51  0.98875 -151.44  0.44434  -97.07
2740.000000  2.50384   44.34  3.75681  148.64  4.24145 -101.21  2.45116 -156.00
2760.000000  1.27319  168.14  3.31310   14.91  2.78046 -111.63  1.65767 -152.46
2780.000000  0.48643  129.39 18.48197  110.71 12.72928  106.51  0.44764  121.73
2800.000000  1.59748  155.02  7.89677  138.94  2.15072  -52.01  1.05060  150.81
2820.000000  0.30872  154.85  6.05652  -27.15  4.81998  -17.37  0.32327  164.41
2840.000000  3.84751  -18.71 16.11332   10.02  2.23602   62.54  0.73910  179.93
2860.000000  0.65746  133.24  3.18485 -103.55  3.04249   62.40  1.48496 -163.99
2880.000000  0.39339   87.73  1.77034   69.09  9.37877   71.72  0.19867   91.95
2900.000000  1.11459   57.58 20.10612 -160.80  9.98056   -2.54  1.09749   51.83
2920.000000  0.43964  -27.50 45.64556  149.23  7.13285  138.16  0.41843  -26.95
2940.000000  0.81853    2.72 21.99690    7.28 10.93910   -6.03  0.80791    2.27
2960.000000  0.31635   35.42  4.82467   11.47  9.28310 -176.55  0.69416   59.62
2980.000000  1.95136  115.23  2.32995   -8.35  5.97074  144.23  0.10262  149.73
3000.000000  2.70225  140.15  3.00026  114.69  6.73603   85.38  4.76661  -60.35
