# MHz S MA R 50
!   freq        S11              S21              S12              S22       
1000.000000  0.58193   84.74 45.96443  -78.10  0.09412 -172.47  0.45555  109.14
1020.000000  0.02661   70.40  0.11219  158.81  3.75609  177.51  0.04130   82.77
1040.000000  0.23250   90.66  3.26369   63.77  1.87820 -118.06  0.24245   80.43
1060.000000  0.20895  -89.30  0.56377  -85.96  0.40462   84.18  0.94551  129.45
1080.000000  0.07869  155.67  2.57281  -34.32  0.16813  -91.44  0.03220   99.16
1100.000000  0.07455  160.41  0.93728  169.56  0.24806  -98.92  0.06888  117.13
1120.000000  0.87898 -102.85  5.64294   44.86 139.79946  -62.07  0.90627  -96.97
1140.000000  0.69036   57.70  0.80526 -166.23  0.24016  142.50  0.90709  123.17
1160.000000  0.29987   60.99  4.28046 -174.14  1.89336  179.80  0.31339   65.16
1180.000000  0.50975   75.34  1.44800 -163.13  0.64307  -93.72  0.99869   70.43
1200.000000  0.61621  -12.58  0.15067 -177.64  0.10641 -145.83  0.53864  150.95
1220.000000  0.25010   69.38  0.50929   -2.99  0.59666   70.01  0.23232   67.97
1240.000000  4.64506  -23.50  1.59594  -76.14  1.81367  104.79  3.04251 -110.54
1260.000000  0.02859   -4.80  0.38179 -103.95  0.55065 -127.88  1.12112 -113.59
1280.000000  0.45434 -139.83  0.37700 -146.02  0.72694   85.43  0.59907 -107.26
1300.000000  2.83922  -73.40  4.80086   63.23  0.38138  -43.92  2.29251    8.92
1320.000000  1.68401  100.19  3.78051 -106.38  5.68859   89.98  1.09150   94.33
1340.000000  0.28821   87.06  0.27216  -22.38  1.31158 -147.54  0.40372   99.30
1360.000000  0.12848  167.92  0.60679  -53.47  5.48942  175.92  0.27716 -111.56
1380.000000  0.99754  106.58 122.32596   75.80 271.82878  -46.35  1.00481  105.39
1400.000000  0.94268  -97.83 187.17474  117.28  9.76187  -31.42  0.96507 -105.98
1420.000000  0.32347  107.24  0.67357  115.06  0.62953 -131.70  0.14637  107.57
1440.000000  0.69479   59.14  1.09759 -173.06  2.11380  -18.33  5.94527  -37.97
1460.000000  1.33696   66.89  0.78802  -49.01  0.35455  -55.03  0.32787   -6.32
1480.000000  0.26437  -97.48  0.75242  118.08  1.82415  117.53  0.28295  -84.02
1500.000000  2.44425  -81.27  3.87333 -160.03  1.95604   80.50  2.22693  -93.49
1520.000000  0.14145  128.35  1.09286    1.97  0.37408  103.59  0.20217   21.28
1540.000000  0.94258  -59.60  2.63451  -20.00  0.82269   62.81  0.79471 -146.32
1560.000000  0.56229 -132.99  2.82140 -179.76  1.72814  -67.06  0.63659   81.52
1580.000000  1.43758  -83.86  1.74425  -26.11  3.48763  -20.71  1.41116  -91.64
1600.000000  0.37322  -67.57  0.86510  -98.27 145.28277   23.42  0.62499  -96.66
1620.000000  0.78879   80.36  1.32390   19.92  0.79889  121.35  0.45831   86.60
1640.000000  1.00206   94.73  2.38584  -69.38  2.25249  141.13  1.58063  113.79
1660.000000  0.22483  -56.26  1.80305  126.63  2.60215 -114.98  0.68264  -68.25
1680.000000  0.22001   30.18  0.61849  -98.65  1.36192   46.22  0.60844  122.06
1700.000000  0.25662  127.21  1.79793 -107.83  8.56249  153.53  0.21782   99.12
1720.000000  3.34179 -178.77  1.26139  172.56  0.62762  154.47  0.70084  -24.50
1740.000000  0.87570   66.42  3.22152  120.95  3.28662 -136.16  0.42112   87.05
1760.000000  0.55030  -10.63  0.85553  150.76  5.94115   80.48  0.98795  -77.84
1780.000000  2.31081   36.42  2.80463 -177.02  1.41510    5.91  2.29301  -42.60
1800.000000  1.60177   79.06  2.04856 -131.69  1.13114 -160.62  0.45467   56.28
1820.000000  0.32675   99.55  2.03700  -22.35  1.47288  118.32  0.27882   78.41
1840.000000  2.10680  -61.32 185.13212  -72.89  1.69074 -146.55  0.83484  -93.60
1860.000000  0.88207 -177.28  1.04531 -149.95  1.34794   25.51  3.56581   67.19
1880.000000  0.36317 -159.69  0.67631    9.78  1.00457  176.83  0.61768  -79.09
1900.000000  0.76107   92.13  1.28729   61.56  1.61170   63.57  4.01280  -93.06
1920.000000  1.30206  -79.90  2.10646  -34.60 68.56443   49.78  0.87653 -111.57
1940.000000  0.15571  172.03  1.39909  -81.11  3.58148  -43.50  0.36293   96.70
1960.000000  1.16362   93.33  4.45992  164.06  8.72396 -178.82  1.17821  113.28
1980.000000  1.10251 -114.15  5.46603  -10.91  1.21742   73.87  0.60255  -92.03
2000.000000  0.48634   43.11  0.74481  109.12  1.22948   45.08  2.25774 -152.10
2020.000000  1.29296 -153.04  1.65342  128.97  2.39283  140.48 12.93936  -95.15
2040.000000  0.39020   61.05  3.28003 -106.47  1.72445  136.59  1.92250  -74.43
2060.000000  2.32737  -66.06  9.29660  -19.25  3.11522  -51.47  1.64667 -131.84
2080.000000  5.02140   33.07 10.37096 -128.36  1.57456   32.44  0.44812  152.75
2100.000000  0.46319   39.94  1.24061  178.32  2.57875  174.99  1.41500   60.98
2120.000000  1.55092  -73.59  2.69960  150.96  4.94479  177.52  0.72760  -70.13
2140.000000  2.63416 -161.38  1.75975 -141.66  4.15316  102.16  0.77300  -60.01
2160.000000  0.97630   89.04 366.82863   50.13  4.22852  151.00  1.22155   91.45
2180.000000  1.71018   83.04  1.85726 -153.16  8.40920   73.81  3.99371   65.03
2200.000000  1.10524   86.40  2.88754  -28.23 11.24614  -21.57  0.88529  102.70
2220.000000  0.76867  -53.62  2.16358  -88.95 12.32867 -110.51  1.13142 -122.65
2240.000000  0.29738 -110.77  6.75965   17.71  3.54846   61.88  0.22820 -113.06
2260.000000  1.84159 -157.94  2.44993  -84.86  4.92324 -130.06  2.72214  -79.05
2280.000000  1.90523   78.48  4.15237  142.17  6.11298  101.97  0.87236  102.91
2300.000000  0.25284  -79.62  6.53361  132.89 30.46951   94.67  0.29007  -85.32
2320.000000  1.11081   79.94 10.84883  -98.61 17.59440 -149.31  1.31520   60.93
2340.000000  2.79417   81.87  1.54363   40.67  6.19993  -69.98  0.93884   70.26
2360.000000  0.42706   40.97  5.86184   -7.29  3.93844  -31.65  1.05152   88.53
2380.000000  1.43783   51.48  4.29254  127.48  5.85372  -84.64  0.79319  124.46
2400.000000  2.33088   57.33  5.37789  -76.57  1.86308  -32.63  0.83747   58.91
2420.000000  1.30059   60.91 29.62773 -159.40  6.21247   25.92  0.91443   78.31
2440.000000  0.09099  -79.27  3.58506    1.54  1.38660  120.26  0.22653  -39.83
2460.000000  1.19822  116.23 11.22314  127.22 430.16395  -30.73  1.50802  123.52
2480.000000  0.43199 -132.09 10.65571   32.17  4.28337    0.50  0.27295  167.79
2500.000000  0.07302  140.80  2.24132  -26.60 18.31284  -41.81  0.36988  157.18
2520.000000  0.60653  132.54  5.84872  162.01  2.52086  148.02  1.42941  109.71
2540.000000  0.14576  140.55  2.16716   84.16  2.00885   60.34  0.54300  136.71
2560.000000  1.62637  178.48 16.72863 -146.09  3.10675  154.64  1.62731  176.17
2580.000000  0.18931   75.83  1.14202   97.60 16.11485  146.85  0.43448   94.00
2600.000000  0.40764  -17.05  1.43981  140.70 462.18475   35.25  0.79769   87.25
2620.000000  1.43211 -173.35  4.07794  167.72  2.23400 -160.73  1.12484  104.04
2640.000000  0.66010   22.66  3.64132   28.98  9.53356 -123.08  0.76946   40.25
2660.000000  0.39353  -23.75 479.31836  168.21  1.82188 -123.11  0.32881  -39.63
2680.000000  0.15966  -18.56  7.43903  166.18  8.80648 -151.24  0.15983    2.10
2700.000000  0.13094   45.76  2.18537  104.56  3.84081  103.25  0.74907  101.37
2720.000000  0.30849  -53.53  1.36870 -116.82  3.03162 -113.38  0.77902  117.69
2740.000000  3.68515   40.37 32.02484   92.01  2.42888  -38.41  1.69584   -7.08
2760.000000  1.13033  175.97  9.04184 -121.54  3.45330 -151.29  1.31271 -175.27
2780.000000  0.51470  123.86 17.89952  -70.83 698.81276 -149.15  0.50600  127.65
2800.000000  1.16986  167.48  6.87694  173.60 11.34906  -34.62  1.54095  150.43
2820.000000  0.29291  174.26  3.26613  109.69 23.16293  -44.40  0.33696  153.26
2840.000000  2.51980 -116.65  2.32492   78.91  1.99453   58.80  3.64724    1.71
2860.000000  0.54830  125.84  3.29142 -146.40  4.54882 -120.82  1.02549  143.30
2880.000000  0.27125   85.74  3.87854   55.55  4.69212   80.81  0.23624   76.55
2900.000000  1.32802   58.64  5.29677   14.03  8.15602  177.48  1.13617   59.80
2920.000000  0.43818  -46.90 21.27540  133.09  6.14536  -40.37  0.57872  -41.61
2940.000000  0.81479    3.81 21.87844 -176.39 11.15303 -166.32  0.79657    6.23
2960.000000  0.36290   29.71  3.31833  -22.90  7.55336  -18.35  0.33121   36.45
2980.000000  0.35103 -120.54  1.93092  -16.44  3.15813  175.56  1.47580  104.84
3000.000000  1.49713  -71.94  4.28385 -101.12 10.41129  -99.97  2.09012  -66.31
