# MHz S MA R 50
!   freq        S11              S21              S12              S22       
1000.000000  0.58025   84.34 169.66811  -74.16  1.59447 -174.25  0.46970   45.14
1020.000000  0.03484  100.33  3.90451  171.79  0.57842  166.64  0.03687   92.37
1040.000000  0.31695  123.20  1.05949   56.92  2.49225 -118.71  0.28297  116.97
1060.000000  0.39128  -86.36  0.66200   78.89  0.06398  -39.59  0.56218 -142.52
1080.000000  0.07664  132.94  2.14413  107.28  0.15752 -112.08  0.09106  139.04
1100.000000  0.06598  106.23  0.12704 -127.77  1.93162  -84.59  0.08697  152.67
1120.000000  1.00959  -90.90  6.22755   27.91  0.13852  165.03  0.39543  -94.78
1140.000000  0.63421   85.43  0.55603 -165.40  2.60979 -156.76  0.74066  109.74
1160.000000  0.29425   81.83 42.37561   57.05  0.93602  179.99  0.37764   66.09
1180.000000  1.01656   98.85  0.82374  -25.10  0.63925   92.52  1.48931   50.50
1200.000000  0.95075  117.93  0.44437 -111.15  4.16795  131.69  1.29164   87.94
1220.000000  0.20842   52.84  0.46284 -176.79  6.46415   23.24  0.35862   75.62
1240.000000  0.90741  -77.97  2.11394 -100.73  0.51129  115.06  1.10031  -98.10
1260.000000  0.45501 -147.19  0.45804 -110.31  2.53407   10.31  1.09984  -97.08
1280.000000  1.01773  -82.20  4.74745   54.25  0.66857  -77.64  0.51620  -93.12
1300.000000  1.90518   15.58  0.51835 -133.43  0.42286  -98.80  1.47073  -12.11
1320.000000  1.17465  115.38  0.65677   78.42  0.50056  -36.32  3.29510  153.73
1340.000000  0.44209   99.13  7.50934  -65.91  0.82940  -10.57  0.36184  107.72
1360.000000  0.30444 -102.24  1.44733   90.84  0.90044 -166.80  0.51800 -152.05
1380.000000  0.26065   85.22  0.64560   62.62  0.74643  177.29  5.05041   29.26
1400.000000  0.34448  166.89  0.49894  -18.82  1.81738  -16.99  0.72723  -97.88
1420.000000  0.18277   86.48  1.39816  -48.27 127.83649  -53.76  0.20493   93.26
1440.000000  0.68038   66.00  0.52442 -146.54 175.37170   75.34  0.93538   86.28
1460.000000  0.56353   69.06  1.02321  157.44  1.70507  122.96  0.73683   78.53
1480.000000  0.19464 -101.86  2.48615  138.55  5.10961 -139.86  0.30469  -81.10
1500.000000  0.73296  -89.92  1.00735  -79.58  3.60029  -29.96  1.09359  -80.26
1520.000000  1.06637   69.76 249.33428  -92.87  0.35304   75.48  0.69183  -12.30
1540.000000  0.49699  -44.62  0.41956   78.30  1.17783   73.89  1.39715  -15.78
1560.000000  1.27995   54.68  3.57952  171.95  1.59247  174.86  2.17261  107.64
1580.000000  0.95954 -113.51  0.69360 -103.62  1.06631 -131.75  1.05541  -68.00
1600.000000  0.30680  -90.00  1.53526  -81.66  0.48759   54.30  0.22059  -45.60
1620.000000  0.32171   71.54  0.38184  143.30  4.60298   88.32  1.25857  102.17
1640.000000  1.19102  100.79  5.26943    6.66  0.47960  109.08  0.69377   22.70
1660.000000  0.87827  -92.08 212.30089  165.91 142.46614 -150.43  0.89355  -91.87
1680.000000  0.85231   68.01  2.38039 -122.22  1.19268 -124.68  0.41275   36.70
1700.000000  0.16553 -172.17  0.96563  159.54 124.38851   25.50  0.22590  113.55
1720.000000  1.10086 -150.92  0.94657   31.89 405.14302  158.62  8.81199  -98.72
1740.000000  0.59252   62.95  1.54640  -54.25  1.95197 -163.09  0.70353  109.38
1760.000000  0.52681  -99.30  0.96312  175.45  1.53085  141.06  0.81075   15.67
1780.000000  1.63782   55.29  2.77539 -147.86 185.59657  -74.98  2.68208   59.14
1800.000000  1.01844   45.43  3.76010  -67.41  3.64954  -67.84  1.86118   89.31
1820.000000  0.49392   24.25  0.96336  102.73  1.63835  -41.00  0.27857   67.72
1840.000000  0.46494  179.31  2.03810  142.21  2.78406  128.88  1.21117  -58.45
1860.000000  0.77168   21.94  0.69522 -168.87 223.20144  -50.82  1.50953   73.28
1880.000000  1.50605  -93.48  3.14374 -155.57  1.00818   15.11  0.49291  -96.02
1900.000000  7.35920  128.15  3.96495   93.71  1.14671   66.51  1.97477 -141.97
1920.000000  1.23753 -145.00  0.87087  -44.81  3.32346  -67.37  0.93980 -119.26
1940.000000  0.34070  138.88  3.26381 -107.02  3.32202  177.38  0.22984  105.72
1960.000000  0.79974  116.60  2.90343  162.93  4.08769    5.89  1.43240  115.34
1980.000000  0.72244  -81.42  1.01666 -103.80  1.92470 -150.21  1.21866  -86.80
2000.000000  2.17401   -6.08  1.79525  122.33  0.81739   45.31  0.21232    5.62
2020.000000  3.99429 -108.43 343.17495 -177.04  1.49692  -66.89  2.71653  178.41
2040.000000  0.88947   80.47 294.86811   32.14  5.40964   63.60  0.98424   61.76
2060.000000  1.93128  -58.30  3.98232  -32.66  9.75011  122.00  2.71938  -46.58
2080.000000  2.15520   40.39  4.96493   94.70  2.68937   44.37  1.67537   44.56
2100.000000  1.11128   62.11  7.62564 -167.59  6.08494 -122.41  1.53119   78.31
2120.000000  0.63831 -123.66  1.48517  141.60  4.33084  131.89  0.70381  -68.63
2140.000000  0.64268  -43.26  1.72380   89.84  1.83390   10.05  0.73213   44.36
2160.000000  0.95392   89.30 353.06065   11.17  4.06779   87.04  2.67647  -34.65
2180.000000  9.57670   69.63  4.96729   74.04  1.83324    0.50  2.20648   -4.88
2200.000000  1.06577  115.64  7.27481   17.88  5.99552   -2.67  0.82330   99.84
2220.000000  0.57722 -113.76  2.03016   67.98  3.26327   82.86  1.61389  -87.86
2240.000000  0.28587 -112.72  2.37606   33.42  5.82272  172.68  0.35497 -169.82
2260.000000  5.24264 -128.33  9.51276  -90.16  5.28745 -133.90  3.16330 -172.51
2280.000000  0.79639  103.63 26.65742  -21.11  1.33654  122.62  0.54564   77.92
2300.000000  0.31406  -91.75  7.37850  132.86  8.03258  -85.39  0.31815  -98.60
2320.000000  3.39883   74.30  1.49635   86.79  2.50895  -99.05  1.11041   95.34
2340.000000  0.91778   62.87 11.31719 -127.27  7.89219  -88.35  1.41232   73.92
2360.000000  1.08983   67.21  6.37550  163.38  2.52653   -2.81  0.74358  108.35
2380.000000  1.02700   78.65 44.10778  142.36  2.89279  144.97  0.78751   29.60
2400.000000  1.13614   39.13  4.13745  176.53  2.39056   -4.69  1.11957   68.87
2420.000000  1.41649   52.32 31.11746 -163.82  4.09885   25.07  1.72156   70.80
2440.000000  0.15278  -82.01 426.80113   63.58  4.10001  154.81  0.22770  -60.09
2460.000000  1.45560  106.22  2.66713   90.67  8.28130  106.59  1.52806  116.42
2480.000000  0.29266 -122.67 710.65891  133.85 14.25292 -168.62  0.30839 -118.66
2500.000000  0.30119  175.66  1.90425  -21.89  3.46662  -56.85  0.33268 -173.33
2520.000000  1.04678  164.12  1.66716  170.92  3.53348  135.83  0.54303  126.25
2540.000000  0.18219  155.19  1.88943   12.19  1.20139   41.66  0.48073  119.10
2560.000000  1.47777  177.32  2.11108  -27.62 12.30981  160.84  4.24401 -166.63
2580.000000  0.56374   92.06  6.83878   82.69  8.67969   88.41  0.43665   91.15
2600.000000  0.80356   86.98 366.19254   50.20  6.87353  125.38  0.63569   92.81
2620.000000  1.06244  -32.19  2.24791 -148.36  3.30843 -152.44  1.28257  172.53
2640.000000  0.89741    9.38  3.72668   -7.65 17.38752   48.78  0.93823   29.69
2660.000000  0.21844  -42.39  2.07315 -146.75  7.23843 -118.35  0.41951  -33.94
2680.000000  0.26152   31.29  8.75846  143.40 483.67283   76.22  0.20639    5.18
2700.000000  1.14922   86.15 503.76138   48.41  1.96488   98.97  0.51815   97.21
2720.000000  1.76196   31.89  5.19405   56.26  3.04777 -104.86  0.51008   -6.81
2740.000000 19.38411   53.14 17.80127  -72.61  2.18009  -50.28  2.44493    1.44
2760.000000  1.20107  178.60  7.75419 -144.57  2.72409 -134.57  1.28788  169.52
2780.000000  0.50453  127.15 543.39279 -159.57 465.61935 -133.12  0.50410  127.42
2800.000000  1.12905  170.38  6.80048  -85.40  2.76019  -61.96  0.99342  153.52
2820.000000  0.31355 -172.97  1.98054  138.76  8.72754  -45.49  0.31555  152.39
2840.000000  7.00390  -54.97  9.99426   26.45  4.46734   54.89  2.01622   53.92
2860.000000  0.90341  125.28  3.30238 -147.95  6.07260   60.66  1.19989  124.91
2880.000000  0.27561   80.55  3.73923   79.40  4.35355   47.55  0.22561   71.43
2900.000000  1.02636   46.86  2.55068   47.18  2.21703 -151.52  2.12306   86.38
2920.000000  0.59708  -26.50  3.03680  -46.99  1.95436  161.85  0.60034  -17.83
2940.000000  0.80247    2.31 11.67238   21.21  3.14009   -6.47  0.83913   -0.67
2960.000000  0.30927   30.19 11.21436  169.98 659.10750   98.59  0.35669   40.60
2980.000000  3.27170   87.37  5.79080  -28.83  7.78443  -12.36  1.43065   74.77
3000.000000  2.50203  -72.69 102.94436 -123.80 93.07137  -98.55  2.25738  -71.27
