# MHz S MA R 50
!   freq        S11              S21              S12              S22       
1000.000000  0.33027   76.45  0.73465 -173.44 103.39920   96.54  0.58218   84.45
1020.000000  0.03465  106.80  0.62881   -2.55  0.57286  179.97  0.02074  135.61
1040.000000  0.24540   98.35  1.83893 -126.72  2.92661 -114.67  0.31148  103.90
1060.000000  0.39652 -127.69  0.14840  -73.66  1.26928   83.89  0.47496 -149.97
1080.000000  0.08543  156.50  6.72747  -78.94  0.97540  -47.26  0.06932  157.46
1100.000000  0.08181  141.06  0.84020  167.56  5.12904  -34.80  0.09093  144.03
1120.000000  0.90111  -96.99 138.61134  -61.31  0.46053 -126.49  2.08923  -61.55
1140.000000  0.56503  111.39  1.59388   37.60  1.29728 -160.17  0.34558  163.02
1160.000000  0.23987   90.86  3.04514   22.00  1.21113  178.00  0.32356   95.31
1180.000000  0.53861   86.80  2.01050   -4.71  3.37821 -168.51  1.15359   86.68
1200.000000  0.72801  101.21  0.64591  154.09  0.63300  132.14  1.08103  126.55
1220.000000  0.76735 -162.94  1.83302 -158.49  0.53581  139.10  0.28016   61.35
1240.000000  1.66691  -58.95  0.44631   44.15  1.37484  108.41 15.01477  104.29
1260.000000  0.77815 -103.79  1.05623   77.61  0.32988  -18.65  0.17802   44.54
1280.000000  1.08482  -71.95  0.52720   -1.83  2.00831   53.18  0.50348  -46.03
1300.000000  2.45489  -73.07  2.04871  131.30  0.44602   51.43  1.36303   -7.08
1320.000000  3.61121  100.63  0.65638 -114.70  0.37643 -144.21  1.27127   83.34
1340.000000  0.47428  102.63  4.50240   80.95  1.32739  115.34  0.28981  136.05
1360.000000  0.38771 -102.42  0.76635  -56.96  0.69434   34.16  0.38064  -70.68
1380.000000  0.34182   93.25  1.63700 -173.69  0.65273   44.50  0.56782   70.31
1400.000000  1.21734  -98.32  1.88766   57.08  7.64401  166.54  0.92874 -103.07
1420.000000  0.17455  103.09  1.38586   63.69  0.48471 -112.63  0.13646   87.30
1440.000000  0.70266   67.52  0.75657 -126.56  2.83496 -163.13  0.91353   79.63
1460.000000  0.66980   76.58  1.65443   78.42  1.31014  123.32  0.57902   88.33
1480.000000  0.22232  -65.42  1.11000  106.03  1.67925   97.34  0.41729  -62.69
1500.000000  1.26894 -155.97  0.57378   87.49  2.03612   20.94  0.83815  -54.62
1520.000000  0.95753  160.18  0.30461   73.49  0.63254    1.23  0.68748  153.98
1540.000000  0.57100  -92.14  0.75071  151.37  0.88533  -29.79  1.53934  -57.52
1560.000000  1.53043  -14.86  2.27757   85.53  1.02027   68.66  1.05090  119.52
1580.000000  0.66684 -109.92  0.81488  -79.76  3.93130   86.25  0.74977  -86.33
1600.000000  0.48331  -86.49  1.12316 -164.99  4.01248   45.73  0.70150  -95.16
1620.000000  0.90793  113.35  1.47559 -163.51  2.46435  -59.46  0.87374  108.77
1640.000000  0.32607  148.01  1.09886  -57.50  0.97187  175.16  0.30011  133.63
1660.000000  1.01539 -132.73  1.69576   -9.98  2.97558   92.12  0.87370  -84.66
1680.000000  0.79304   61.82  4.52074  -60.94  3.39775  107.01  1.60808  101.33
1700.000000  0.06396  152.04  0.72193  130.71  1.33317   77.06  0.17926  103.03
1720.000000  5.11346  -49.19  3.69180 -150.31  1.72922  149.32  9.28020   15.87
1740.000000  0.41121  136.29  1.07962  175.84  2.42147   35.61  3.84425   -8.78
1760.000000  1.35345 -169.07  1.39128   -2.31  7.89579  146.42  1.16660  -87.56
1780.000000  3.22698   83.24 11.48052  -50.79  3.08875   46.64  8.77742 -129.29
1800.000000  0.67250  169.74  0.57349  -61.25  1.13362  -63.49  3.49565  -55.51
1820.000000  0.85008   88.32  1.46805  106.78  1.43051  114.05  0.49928   42.82
1840.000000  0.80654   -1.20  1.57353  -44.95  2.03909 -131.47  1.04247  -41.11
1860.000000  0.82859   88.32  3.17123  -59.60  1.38677   45.43  1.23239  -15.60
1880.000000  0.82409 -126.64  1.25266  -42.91  3.37027  148.09  1.21545 -119.26
1900.000000  5.31394   79.69  3.63981  -43.12  1.40182   73.37  1.21782  133.11
1920.000000  0.61531 -109.97  3.38968  115.54  2.32947  -86.07  2.23105 -126.60
1940.000000  0.31874  122.63  7.26232  -33.72  1.21962  -31.41  0.41853  136.07
1960.000000  0.77207  114.33  4.93686  172.32 205.68220  -39.45  1.25273  109.39
1980.000000  1.28103 -113.73  5.50074  -12.34  5.45605   81.55  1.16413 -122.77
2000.000000  0.79669   99.68  4.37671   54.85  4.59841   77.95  0.86494  113.56
2020.000000  1.11015   97.20  1.00630  101.41  3.30546  169.72  8.32133 -114.79
2040.000000  1.13090   78.91  4.96875  -45.43  3.61297   86.66  0.71519   58.79
2060.000000  2.12940  -35.94  7.77306  105.27  3.66120    9.92  3.21635  -17.59
2080.000000  2.08458   50.30  4.56711   75.38  3.27575   29.95  6.48599  166.96
2100.000000  0.99017   79.94  9.57050   28.36  1.62848 -126.60  1.86589  137.25
2120.000000  0.52882  -37.94  1.42144    3.78  3.25586  -11.22  1.09292  -27.30
2140.000000  0.94676  -35.39  1.11928   31.72  3.20776   18.47  1.40492  -98.44
2160.000000  0.74309   97.81  3.47803  -20.50 373.37201   41.31  0.95197   89.06
2180.000000  7.80939  159.27  1.81986   36.48  2.62164   12.11  9.31815   70.83
2200.000000  0.44277  108.45  1.64380  -49.32  2.24368  -51.64  0.15196   67.60
2220.000000  0.93590 -130.13  5.81763  -91.54 12.40194   23.74  1.25012 -118.90
2240.000000  0.17641 -103.47  2.47407   68.60  3.91464   20.85  0.28664 -102.21
2260.000000  1.91053 -167.43  2.70678  -87.52  1.70423   81.04  0.79809 -143.24
2280.000000  0.63365   82.90  2.01776   99.80 12.62107  130.93  0.84143  103.24
2300.000000  0.25773 -104.86  2.24130  -35.60  6.36136   87.03  0.31257  -78.89
2320.000000  1.35120   82.36  7.59788  -71.50  5.83604  -77.84  1.11858   62.69
2340.000000  1.46368   67.23  5.64102  -82.80 12.34197   66.56  1.26595   76.94
2360.000000  0.59774   96.65  2.12235  129.41  4.97941  147.26  0.70954   94.02
2380.000000  1.50312   94.30  3.13296   59.36 16.80255  151.17  1.16936   72.86
2400.000000  1.51878   54.50 536.57372 -121.92  5.27492  -13.46  1.45138   25.02
2420.000000  1.41189   70.29 13.80860  169.88  7.87186 -172.92  1.29255   40.67
2440.000000  0.20898  -74.54  3.55517   95.67  3.18074  104.02  0.19551 -100.88
2460.000000  2.42752  126.29 11.38295 -133.99 44.43588  129.70  1.44966  120.32
2480.000000  0.29207 -127.75 17.55008  157.66  2.13285  172.96  0.11786   57.58
2500.000000  0.46699  149.57  4.78175  -13.55 13.70412  -66.42  0.39799  163.07
2520.000000  0.61311  132.83 11.83083  156.81  6.65780   21.74  0.71173  126.77
2540.000000  0.47690 -134.66  1.23371   79.46  3.07640   34.59  0.24855  136.22
2560.000000  2.73453 -158.74  7.37435    6.52  6.31735    4.12 10.23007  -61.00
2580.000000  0.35466   81.54  2.88642  -88.99  2.49090  100.60  0.45110  -30.96
2600.000000  0.45468   93.75  3.22121  153.37  2.19672  131.27  0.79536  123.53
2620.000000  2.48076   69.18  6.68070   22.73 104.31839 -175.89  3.83659   82.90
2640.000000  0.62681   14.78  4.66842 -162.82  4.12158   45.79  1.10319   18.63
2660.000000  0.46587  -24.75 17.24847 -151.90  3.49977  -81.28  0.52972  -38.30
2680.000000  0.42161  -12.32  2.01957 -160.89  5.77601   11.29  0.25643   12.83
2700.000000  1.52782  163.00  2.56020  127.96  7.54832  118.51  0.72710  109.28
2720.000000  1.39255   42.52  7.86409   28.18  4.28458 -100.64  2.95084  106.67
2740.000000  2.01933    3.31  5.22482  -83.59 524.18773 -161.75  5.58858   50.33
2760.000000  1.30713  171.25  2.64023   38.39  7.18027  169.51  1.13058  174.04
2780.000000  0.42160  107.06  4.37666  116.23 16.41852  -36.28  0.53980  127.07
2800.000000  1.23185  143.04 424.95278   25.76 13.02394  -70.10  1.34908  156.31
2820.000000  0.62121  179.31 17.80664  -28.78  1.73574  -45.26  0.34019 -172.84
2840.000000  4.15560  -19.30  6.08575 -111.39 11.34635  -86.73  3.92355  -33.64
2860.000000  0.72290  126.72  3.79586 -118.97  8.97955 -125.10  1.00828  125.75
2880.000000  0.29708   46.29  4.50460 -130.70  7.11676   43.61  0.30799   71.06
2900.000000  0.98603   64.65  3.27716 -145.63  3.37577   20.46  1.06216   49.79
2920.000000  0.44636  -27.91 594.65307   61.11 21.18847  -50.83  0.44796  -31.22
2940.000000  0.82142    2.69 12.07605  -23.87  4.64769  162.88  0.83505    5.62
2960.000000  0.26711   56.49  3.16697 -157.23  6.08540  147.30  0.28334   39.85
2980.000000  1.41076   82.80 16.06105   -2.90  6.99016 -179.95  1.02714  105.41
3000.000000  3.19012  -98.76  2.76855   61.11 50.54217   79.54  2.39891  -73.22
