# MHz S MA R 50
!   freq        S11              S21              S12              S22       
1000.000000  0.58024   84.29 45.83768  -73.65  1.58615 -175.31  0.54002   63.59
1020.000000  0.04300  171.33  1.80097   -4.07 185.45071   87.37  0.04162   86.05
1040.000000  0.26540  -82.50  0.54369   56.29  0.14027   39.40  2.44924  -72.76
1060.000000  0.29893  -71.61  0.14119  105.29  0.07387  -51.72  0.71748  -14.11
1080.000000  0.08632  165.83  3.80771  115.02  0.23256  154.90  0.06932  101.64
1100.000000  0.08043  149.34 10.98425  152.83  1.10445  144.70  0.11108 -161.88
1120.000000  0.31372 -122.44  0.24343 -111.06  0.10868  -47.56  0.84408  -59.24
1140.000000  1.42247  126.16  1.50278 -168.01  0.10371   88.46  0.42639  172.34
1160.000000  0.29324   74.38  0.89131  151.10  0.63610  138.00  0.23093   54.59
1180.000000  1.07915   78.60 236.37002  104.97  3.24469  171.19  1.13823   95.79
1200.000000  1.93834 -123.58  2.15313  -74.60  0.42887 -113.36  0.69073   78.63
1220.000000  0.14858   31.43  1.59699   43.10  0.39059  142.63  0.42308   69.72
1240.000000 12.35007  148.90  1.09510 -110.07  2.23868   58.84  3.28313  -79.79
1260.000000  0.82597  -67.35  1.12816 -134.69  6.02140 -165.47  0.69298  -94.38
1280.000000  1.90202  -31.08  0.96332  -89.61  2.04077  -41.80  1.02323  -81.36
1300.000000  3.66405  -22.43  0.72286  -43.57  2.50342   25.29  2.73485 -148.22
1320.000000  2.39706  143.27  2.29543  120.91  1.20897  -52.08  0.71891   72.87
1340.000000  0.49224  110.31  2.15849   75.49  1.44685  -95.23  0.33220  107.34
1360.000000  0.16464 -108.93  1.69386  -75.59  2.54040   54.33  0.26983 -109.22
1380.000000  1.00258  106.40 106.48687   83.36  0.96152   62.75  0.53339  107.53
1400.000000  0.13034 -115.94  0.31520 -118.73  0.57279 -151.72  0.03538  -53.48
1420.000000  0.17761   69.64  0.61662 -120.81  0.70614   96.55  0.16204   76.32
1440.000000  0.92857   91.23  3.90778   94.10  5.42685  125.61  0.53232   67.11
1460.000000  1.11031   49.90  2.07848  -99.26 277.00807 -112.49  0.82998   78.65
1480.000000  0.24585  -92.16  1.04151   51.63 205.12522  -58.34  0.30526  -78.20
1500.000000  0.53897  -40.40  1.45398    8.59  0.68948   16.47  0.29703  -84.57
1520.000000  0.13263  -13.17  3.78441  -95.57  2.03981   92.07  0.83390   62.70
1540.000000  0.80221  -63.69  4.60848 -131.08  4.11082   50.39  0.62477  -67.65
1560.000000  0.70996  102.84  0.31914 -106.96  1.28617 -126.07  2.70203   46.95
1580.000000  1.03906    5.97  2.61259 -149.12  1.56817 -138.91  1.21401  -80.11
1600.000000  0.41925 -136.12  0.59776 -115.02 213.86680  113.92  0.62462  -96.38
1620.000000  1.04267   99.06  6.12324  -76.60  1.43254  -30.76  1.05283  122.20
1640.000000  1.12621  103.31  2.73565   91.68 153.81306   57.35  1.14562  109.04
1660.000000  0.24668  -35.58  0.45410  -42.38  0.58806  -40.57  0.52719  -35.29
1680.000000  0.43647   57.33  2.84354 -176.10  4.64469 -121.30  0.96438   87.60
1700.000000  0.22659  113.06 242.33716   46.34  1.82877  -50.82  0.32704  129.01
1720.000000  1.05923   62.44  2.11777   98.14  3.59047 -152.94  6.98710  -25.49
1740.000000  0.60283  137.08  2.56479  -27.00  3.54716  -66.27  1.05551   88.80
1760.000000  1.95515 -126.41  1.87133  152.03  1.93966 -118.10  0.46024  -99.70
1780.000000  1.23684   58.11  1.53866   72.24  2.70171   18.61  1.72116   96.52
1800.000000  0.96524   68.92 345.42605 -131.51 195.43023  115.56  0.96446   69.33
1820.000000  0.39384   66.73 47.09631   79.22 260.74746  -17.82  0.39716   67.26
1840.000000  0.59690 -166.14  0.78143  -14.40 277.33328 -116.63  2.10281  -61.02
1860.000000  1.09721   29.75  1.18907  -40.10  3.97097   42.38  1.85055   83.46
1880.000000  0.82181 -103.68  6.01919   45.13 404.24894  -81.22  0.90972  -96.42
1900.000000  1.68814  177.87  4.55861   67.40  1.62409  113.50  7.63841  -63.81
1920.000000  0.60481 -124.35  1.31426  -24.72  0.93198  -52.03  1.86740  -44.58
1940.000000  0.12867  128.46  3.68758  -64.87  0.87440  -44.47  0.22798    7.72
1960.000000  1.13624  149.44  2.00157   57.65  1.09113   79.93  0.76171  176.94
1980.000000  1.80024 -119.89  2.06048 -171.22  5.00818   76.51  1.10955 -147.66
2000.000000  0.43169  115.36  2.37633   23.76  2.13378 -118.81  0.91771   82.26
2020.000000  2.63282  -96.45  3.38727  -79.80 23.00978  -90.38  3.54388 -110.84
2040.000000  0.88699   81.08 315.06100   31.72  4.19185   43.29  1.18988   74.33
2060.000000  1.98392  -97.71 10.75347  111.88  4.27940 -167.77  2.15168   40.55
2080.000000  2.77121    3.51  4.16187 -160.51  5.63636   24.76  2.91415   69.92
2100.000000  0.45084   47.47  3.61540    8.37  4.14247 -115.85  0.77774   79.98
2120.000000  0.81225  -65.96 444.33596 -116.42  3.61065  -38.08  0.67376  -75.57
2140.000000  0.72582  -88.59  1.16685 -123.97  3.86541   46.27  0.84782  -61.04
2160.000000  1.17634   88.87  3.52365  110.22  2.36347   92.39  0.70237  153.40
2180.000000  1.82815  111.96  8.73456 -112.31  5.75831   50.68  6.09820   73.22
2200.000000  0.75397  100.34  7.45872  -60.40  2.46950  -42.07  0.59856   73.53
2220.000000  1.86131 -134.03  4.19630   22.28  4.14448 -176.74  1.25543 -142.87
2240.000000  0.25830 -129.92  4.27084    3.54  2.04661  174.75  0.15303   -2.91
2260.000000  1.46341  -74.48  2.43171  133.14  2.81559 -120.86  3.09106  176.88
2280.000000  0.70805  121.97  3.01752  -66.09  3.75219  153.25  0.47818   76.77
2300.000000  0.21438  -75.13  1.63202  132.02  3.46740  -10.53  0.32051  -67.18
2320.000000  1.24875   71.42  6.06487 -123.17  1.94466  -87.28  2.09310   67.77
2340.000000  1.69841  127.36  3.27823  -77.54  2.35753   67.98  0.49386  174.86
2360.000000  3.29289  -10.01  1.65594    3.21  1.31948  -17.10  0.52110  174.66
2380.000000  0.83357  100.42  4.16983   69.86 15.13017  110.47  1.00170   78.28
2400.000000  3.04521   66.25  2.66196  -49.06  1.79437   -7.67  2.45291   28.48
2420.000000  0.75104   32.86  3.00396   51.06  7.78601 -164.62  1.44474   49.83
2440.000000  0.15362 -105.96  4.06202  125.52  1.21478  116.78  0.45578  -64.99
2460.000000  3.19501    4.82  1.64327   64.04  4.95098   54.02  1.12505  108.58
2480.000000  0.88327  -80.26  2.11126 -178.43  2.00421  155.43  0.41046 -106.55
2500.000000  0.47238  172.59 23.67375 -100.04 18.52125  -38.18  0.39713  158.63
2520.000000  0.32736  149.07  1.53147  137.84 11.81228    3.93  0.75604  138.36
2540.000000  0.29226  156.57  5.96157 -123.09  5.96669 -135.80  0.20127  153.00
2560.000000  1.15518   95.91  1.82529    6.64  2.07998  -27.03  0.22528  -95.32
2580.000000  0.53379    8.11  2.06015  104.61 16.12183   67.11  0.35162   96.78
2600.000000  6.96268    9.69  2.32758  -38.98  5.83326  -61.22  0.91442   68.94
2620.000000  1.90786  -67.65  1.32162 -153.39  2.58455  173.34  0.55960 -174.87
2640.000000  0.88418   31.60 447.13540  -74.24  8.69254   48.81  0.91911   41.16
2660.000000  0.37366  -21.42 18.99370  106.07  1.46532 -128.85  0.26677  -57.40
2680.000000  0.23499    4.99 14.98861  -13.71  3.67519  174.74  0.15064    7.37
2700.000000  0.68007  115.44  2.54119  105.32 482.39880   27.79  1.15572   85.23
2720.000000  1.22460   61.16 521.15640  103.39  7.60254   47.32  1.48670   52.78
2740.000000  2.03108   22.99  3.53098  -50.31  2.23463 -107.18  1.58561  117.54
2760.000000  1.06905  166.27  2.46517 -163.75  2.86938   27.96  1.29903  172.85
2780.000000  0.40687  126.76  6.45541  114.40  8.12406  135.65  0.58085  143.69
2800.000000  0.99950  142.28  8.99372  -62.16  6.28042  -12.82  1.21200  159.84
2820.000000  0.31396  165.28  3.92003  158.95  6.15284  142.37  0.38817  163.55
2840.000000  1.36056    8.86  2.87252 -152.67  8.60609 -148.42  1.80731  -71.29
2860.000000  0.93575  128.54  9.10006 -128.20  3.60353 -125.77  1.28488  137.41
2880.000000  0.23628   81.05  4.69344   70.07  4.99513   94.10  0.27091   73.50
2900.000000  0.81241   98.88  2.60625 -163.95  7.16298 -122.83  1.08135   62.51
2920.000000  0.38296  -14.22  5.41145  140.73 10.73722  -51.19  0.51159  -30.33
2940.000000  0.88293    6.05  2.11954  160.46  3.31197   18.58  0.77947    6.47
2960.000000  0.33844   35.66  7.77036    3.70  9.56376  148.13  0.33569   53.64
2980.000000  3.56316   74.98  8.11097   -2.09  9.26259  165.08  1.27707   97.45
3000.000000  1.64031  -93.99  5.41590  -77.24  8.73853   81.16  2.58169  -80.31
