# MHz S MA R 50
!   freq        S11              S21              S12              S22       
1000.000000  0.68529   79.69  2.74016 -174.32  0.19684 -177.05  0.37916  -29.70
1020.000000  0.04041   86.06  8.04928   -6.25  2.62430  171.83  0.03661   91.76
1040.000000  0.29479   98.76 269.40474  -29.67  2.10896 -118.38  0.27763   74.86
1060.000000  0.58070  -45.59  0.13371  -63.80  1.34033  -97.22  0.49102  -87.47
1080.000000  0.02613 -147.85  0.67350  -74.24  3.87406  115.96  0.08831  148.99
1100.000000  0.60386 -117.28  0.09848   85.46  0.50693   -3.42  0.11265  145.96
1120.000000  0.90024  -96.71 159.88932 -179.99  0.69831   30.45  0.55608  -45.59
1140.000000  0.48242   43.37  0.99618 -163.15  1.14050 -161.40  0.69013   93.97
1160.000000  0.50092   80.18  0.49583  156.41  0.44134  172.96  0.26137  124.74
1180.000000  0.52742   94.76  0.35276 -151.60  0.56115 -163.67  0.54235   69.47
1200.000000  1.54495  100.31  0.37501 -100.58  2.26320  121.75  1.77325   87.06
1220.000000  0.32597   68.10 76.51047   85.63  0.43547 -173.04  0.36686   28.72
1240.000000  0.72064 -133.49  2.52149   69.90  1.61013   76.01  1.64085  -54.72
1260.000000  0.85824  -92.19  1.42695 -120.56  2.54406 -178.50  0.77558  -95.10
1280.000000  0.75525  -84.08  2.90493   80.35  0.96645  -74.82  1.19147  -93.22
1300.000000  9.84290  -38.53  1.77731  -20.57  1.13959  -18.49  1.10890  -83.88
1320.000000  2.39610  138.66  0.80982  169.00 252.90905   58.62  1.55426   99.46
1340.000000  0.73197  138.71  0.70131  -48.25  0.60232   28.84  0.46643  122.72
1360.000000  0.25490 -116.07 38.14184  157.50  1.35058 -144.03  0.22586 -105.89
1380.000000  0.85932  171.16  0.47996 -123.24 169.26623   22.90  1.00732  106.25
1400.000000  1.10482 -105.79  1.39902  -78.14  0.74201   73.67  0.47824  -91.39
1420.000000  0.14704   54.85  0.50747   59.64  0.83705   22.70  0.18339 -126.49
1440.000000  0.63507   79.44  0.84661   24.14  0.85380   23.13  0.93380   51.64
1460.000000  0.83047  130.20  0.57928  -56.98  3.67845   64.53  0.81501   82.35
1480.000000  0.29918  -74.22 10.60974  153.58  0.64829   24.32  0.19806   32.72
1500.000000  0.86368  -99.33  0.67350   90.31  2.86315 -117.43  0.74645   36.81
1520.000000  0.77155   57.26  2.91770   -8.24  0.74677   -0.03  0.70682   43.52
1540.000000  0.35517 -109.51  1.44861  -98.98  1.09902  155.02  2.96097  -65.65
1560.000000  7.52109  106.76  2.13497  165.12  1.92792 -127.64  1.18183   73.76
1580.000000  0.63863  -80.79  3.02550  142.66  2.26021 -116.08  0.62760  -77.83
1600.000000  0.53253  -95.65  4.33285 -165.58  0.85007  -86.42  0.31988 -127.85
1620.000000  1.17892   75.63  2.17811  159.67  1.10764   20.15  0.87974   61.82
1640.000000  0.68394   89.71  0.56723  114.62  0.64237   97.56  1.17260  -63.89
1660.000000  0.59378 -115.32  2.01698    4.23  0.45583  -40.69  0.31431  -98.92
1680.000000  1.77635 -160.09  1.24418  177.98  3.34817 -165.10  0.75758   90.69
1700.000000  0.19060  112.64  3.46597  117.63  3.92217  150.71  0.26632  125.23
1720.000000  2.19411   57.47  1.98539 -166.69  1.43582  -44.65  2.18466 -154.26
1740.000000  0.36311   79.05  0.95591  110.33  0.74412  126.44  0.71466   53.54
1760.000000  0.72288  -80.85  3.43967  -41.35  0.72346  174.83  1.98423   67.04
1780.000000  5.09808 -106.13  1.17114   -0.97  1.13412   78.94  0.97364  -18.43
1800.000000  0.87541   75.77  3.45033  110.11  0.58063 -121.70  0.34749   41.84
1820.000000  0.24903   68.23  1.29265  154.01  1.46926  -62.09  0.31457  128.51
1840.000000  0.86432  -21.01  1.86425   63.77 14.95390  150.84  2.39607  -61.09
1860.000000  1.49288   73.44 483.03937  -34.88  1.32065  -38.33  0.22697   31.50
1880.000000  0.67802 -151.24  2.36068   36.28  3.16717  -17.50  1.03345  -77.00
1900.000000  2.26654   34.16  0.73790  108.82  0.56137  127.09  0.48018  -80.24
1920.000000  0.68510 -105.85  2.47713  -24.24  3.54138  -83.62  1.05425 -104.57
1940.000000  0.20706  -63.23  0.87983  -56.90  1.19604  138.89  0.18446  122.16
1960.000000  1.25857  108.87 397.84767 -115.47  4.52310   -3.73  1.44893  117.54
1980.000000  0.76330  -80.22  2.07689 -103.88  1.27811 -141.60  0.89120 -114.44
2000.000000  1.25843  135.84  1.54788  110.45  8.28976  -84.28  0.97661  111.41
2020.000000  3.17516  -63.69  1.81577  132.95  1.30536   -6.90  0.36028  -47.65
2040.000000  0.88772   88.59  8.75583  -72.80  4.53751   85.35  1.68629  -26.62
2060.000000  2.51529   30.55  1.83140  -19.75  3.49532  176.81  1.30686  -50.23
2080.000000  6.27256   43.66 11.74940  -65.57  5.08569   97.59  2.79627   60.73
2100.000000  1.01773   57.56  5.97500 -123.78  4.84788  168.04  1.41066   72.73
2120.000000  0.48492  -91.79  1.10002 -179.91  3.68121  148.99  0.86179  -79.21
2140.000000  0.46269  -49.78  1.12535 -165.68 326.36964  -40.97  0.87492  -70.21
2160.000000  1.13532   93.12  5.23282  118.70 11.18998   96.70  1.02637   87.96
2180.000000  5.08378   99.35  5.44355   31.25  1.89514   15.64  1.74095  111.36
2200.000000  0.67133   97.42  3.57682  -56.92  2.97046   -1.01  0.80623  132.18
2220.000000  1.07188 -119.30  5.80519   45.16  3.85620 -122.24  1.65086 -122.40
2240.000000  0.39293 -127.64  4.63914  176.29  1.55736 -130.20  0.54004 -119.90
2260.000000  2.88741 -151.34 435.58683   -7.27  7.19412 -134.92  1.99370 -150.69
2280.000000  0.68606  101.48  6.87807  -94.20  6.80990  160.98  0.95824  102.77
2300.000000  0.28714  -85.44 50.49320  -40.85  4.24997  -77.68  0.39866  -85.72
2320.000000  1.29923   52.37  5.34881 -143.30  3.00334 -112.50  1.19033   81.74
2340.000000  1.02164   79.12  7.82046  -98.40  1.35660  -85.99  1.46018  144.20
2360.000000  0.73922   73.52  7.35933   -6.36  4.85790   -8.33  0.89674   56.23
2380.000000  0.83264   65.30  3.98778 -103.84  7.79005  -99.36  1.45885   85.98
2400.000000  2.32727   32.08  2.22392  -43.73 15.03493  -27.25  1.38688   51.81
2420.000000  1.33187   59.24 304.71451  113.78  2.10763   20.96  2.10465   68.16
2440.000000  0.04686 -138.64  1.84361  -41.42  2.61892  142.40  0.31385   29.48
2460.000000  1.51024  123.62 1586.76296 -101.14  3.60451  115.08  1.75439  107.29
2480.000000  0.90436   39.42  3.92837 -155.00  8.42138   -1.27  0.31361 -146.27
2500.000000  0.63855  147.65  3.72727  -78.45 13.17212 -104.70  0.34836  164.64
2520.000000  0.31079  138.41  6.58991  142.56  1.60330  134.01  0.30939  144.92
2540.000000  0.31201 -166.99  4.70069   47.20  1.52683   67.13  0.23628  118.93
2560.000000  1.38406 -177.14  1.76030  160.77  6.34907  150.41  2.11918  172.31
2580.000000  0.61633   72.63  6.56269   90.74 12.42371  106.89  0.45960   92.62
2600.000000  0.59446  100.44  2.58860  147.09  4.30311  -42.59  1.51601   14.85
2620.000000  3.60790   81.82 419.03436  106.37  1.50635 -127.28  1.00822  177.59
2640.000000  0.77219   37.21  4.28186  149.38  2.33851    2.65  0.29918   84.96
2660.000000  0.37224  -45.10  5.45942  -88.78  8.50857   33.03  0.33522  -23.71
2680.000000  0.20647    4.42 520.74909  112.30 491.55486   73.54  0.20671    4.88
2700.000000  1.14727   85.75 491.67387   16.92  3.90052  102.47  0.21520 -157.87
2720.000000  0.69505   28.08  2.36806 -147.30  1.27226 -143.73  0.90778  -19.12
2740.000000  8.18249   80.84  8.01002  -91.08 16.07051  118.04  3.96336   52.47
2760.000000  0.83646  141.53  3.94688 -146.93  4.01217   26.45  1.31226  164.74
2780.000000  0.76847   90.55  2.25175  -80.53  1.87966  -27.10  0.41059   44.30
2800.000000  0.95426  150.85  4.34381  -26.49  3.21336  -23.40  1.81431  147.63
2820.000000  0.30278  161.33  8.72547  133.21 19.80059  109.71  0.34147  158.87
2840.000000  2.08041  -19.73  3.29420   43.52  5.71893   18.62  3.23565   -4.75
2860.000000  1.17494  130.16 19.19906   77.15  6.24470 -106.94  1.01772  126.48
2880.000000  0.19429   32.87  3.44564   97.28  2.56844 -131.11  0.36382   87.37
2900.000000  1.16584   55.22 27.58198   52.33  6.90953 -163.18  1.03880   57.42
2920.000000  0.39137  -39.75  5.30854  129.37 92.21652  -64.60  0.45135  -28.84
2940.000000  0.80182    5.56  3.04172 -146.64 22.09524   -6.16  0.78166    4.34
2960.000000  0.22387   29.61 11.30734  173.40  5.74378  159.84  0.43753   35.45
2980.000000  9.92295   29.67  5.17181    7.73 50.24184  -46.48  1.41180   84.76
3000.000000  2.33956  -70.57 577.88446  160.52  7.22019 -101.80  1.87825  -31.44
