# MHz S MA R 50
!   freq        S11              S21              S12              S22       
1000.000000  0.60327   57.20  0.27563 -173.87  0.61981 -175.57  0.56098   65.98
1020.000000  0.04036  -19.64  1.92871   -6.08  0.43897   -2.23  0.03028   85.31
1040.000000  0.25132  100.50  1.07880 -126.43  0.73006 -117.47  0.12688  -59.08
1060.000000  0.40607 -104.28  0.69534  -99.72  0.30693 -128.63  0.45480  -91.10
1080.000000  0.09574  119.10  0.68169  -75.97  1.71668  132.79  0.09345  158.34
1100.000000  0.08843  153.00  6.31908  140.60  0.34273 -144.67  0.07730  150.91
1120.000000  0.90822  -96.95 288.53050  -57.50  1.13106 -132.87  0.58178  -89.75
1140.000000  0.66939  101.80  0.86701 -160.42 36.45752   23.90  1.00096   92.20
1160.000000  0.23516   93.77  2.34190 -159.39  0.48939   34.70  0.18697   69.88
1180.000000  1.07597   79.02 42.31052 -155.19  0.97766 -166.03  0.91094   60.67
1200.000000  2.35029   63.75  0.55118  -85.09  0.50507  -78.99  0.37670   94.53
1220.000000  0.47650   76.75  0.94725 -170.43  0.75284   53.76  0.40606 -153.35
1240.000000  2.17686  -77.79 40.18166  -97.19  4.31838   78.98  4.09039   82.92
1260.000000  0.16947  158.73  1.12669   78.60  3.74078  144.73  0.74471  -86.10
1280.000000  1.18235 -102.72  1.06244 -150.55  0.51758  -74.40  0.83756  -55.20
1300.000000  7.38116  -46.81  1.12830  141.93  3.17613   39.75  3.47397  -78.93
1320.000000  0.77237   97.72  0.25695   24.15  0.64972  161.90  1.35432   67.17
1340.000000  0.47205   91.27  2.20223  -60.81  0.60125 -177.16  0.39224   90.60
1360.000000  0.27785 -115.15  2.36064  116.74  0.75801  -67.57  0.36461 -122.34
1380.000000  0.57241  138.96  0.43696  154.30  0.53736  179.26  0.42435 -167.57
1400.000000  0.82862  -90.09  1.40858  106.91  0.62181 -147.43  0.44389  -90.47
1420.000000  0.19892   91.95  8.48347 -150.53  1.19094   11.46  0.45027   94.40
1440.000000  0.80557   67.31  3.64689  -65.18 140.74104  146.59  0.93441   86.67
1460.000000  0.62591   72.25  0.85205   73.13  1.67053  -15.44  4.26001   82.49
1480.000000  0.32901  -65.87  3.58451  -26.21  2.35616   20.68  0.34659  -73.50
1500.000000  0.73383   -7.75  0.56113   -2.49 220.96394  166.00  1.18497  -81.31
1520.000000  3.63164  114.89  1.19754 -165.54  1.05568  -68.41  1.10885   25.69
1540.000000  0.71584  -72.92  4.89832   45.68  4.79698   45.59  0.65458 -102.95
1560.000000  2.47783   59.22  1.32384 -143.28  1.17677   99.11  0.99658   88.17
1580.000000  0.61703  -74.17  2.46589  149.44  1.95445  -95.48  0.98296  -73.59
1600.000000  1.05437  -72.33  0.89180   70.95  1.07869 -161.42  1.06158 -112.84
1620.000000  0.52573   46.66  1.04558  -95.93  1.42248  110.23  3.02647  141.35
1640.000000  0.52992  125.08  1.28963 -103.68  9.12181  -43.82  1.08628  107.94
1660.000000  1.03333  -64.84  7.16043   80.48  1.26256  -27.27  0.63953  -65.68
1680.000000  0.69990   78.23  1.26274  -95.90  0.74006 -169.60  0.53537   98.43
1700.000000  0.24736  120.42  2.38701  -84.71 359.40242   33.71  0.22727  113.25
1720.000000  7.86720  -43.30  5.03218  171.80  5.75921   97.09  1.50823   86.73
1740.000000  0.64425   79.25  2.53329    0.45  1.50929  126.88  0.50962  135.09
1760.000000  1.10450  125.99  0.93471 -108.96  2.22911   55.34  1.65727  -44.51
1780.000000  1.91684   79.19  2.84184    4.82  6.19627  171.30  2.17797   65.99
1800.000000  0.97204   69.87 219.15506  125.87  4.78354  -41.64  1.99535   23.56
1820.000000  0.33919   64.92  5.03506  165.41  1.79656   73.89  0.56886   85.38
1840.000000  2.10522  -61.10 490.96239 -139.19  4.77124 -122.91  1.87738  -52.86
1860.000000  2.40963   45.08  5.44565  126.64  1.11075   26.96  0.88326   41.27
1880.000000  0.61376 -110.60  1.75197  -56.07  2.22619   32.98  0.60188 -105.41
1900.000000  1.63046   20.33  5.09163   60.40  2.65904   45.98  0.44429    7.20
1920.000000  0.44752 -163.04  0.91796  -90.78  1.19968  -52.13  0.73774 -151.58
1940.000000  0.27913  114.37  8.30097  102.09  1.28890   -2.74  0.30940   65.93
1960.000000  0.89850  116.87  1.62666 -154.04  1.18704   -6.36  2.74386  133.45
1980.000000  1.14798 -113.22  5.46160  -10.92  1.39962   61.16  1.42079   88.34
2000.000000  1.27346  154.98  1.36632   96.58  1.50797   85.40  0.85498  125.63
2020.000000  2.63643  -91.16  3.73256   -2.40  0.69548  -34.28  0.53888  -55.06
2040.000000  1.63348   65.50  2.18566   96.15  2.54928  -64.77  1.00642   98.30
2060.000000  2.02412  -53.89  6.27328   14.62  2.21603  152.70  2.23738 -100.05
2080.000000  1.19598  167.26  0.78289   48.62  1.33045   28.25  2.51121 -152.61
2100.000000  1.17652   74.50 12.77760 -121.50  1.19538   11.57  0.44634   27.53
2120.000000  0.88384   19.18  1.66942 -161.54  1.79598   19.94  0.23980  -88.78
2140.000000  1.55475  -96.29  3.47712   12.99  7.55548   80.97  0.81631  -57.65
2160.000000  1.54522   92.30  4.00664  166.67  1.97655   92.09  0.49051  -52.51
2180.000000  2.43719   73.63  5.53574 -156.46  3.63376 -149.33  2.25338   91.33
2200.000000  1.38776  151.30  2.22459   24.10  1.87303   11.27  0.61716  115.66
2220.000000  1.05539  -99.96  2.28907   57.74 12.39585   66.90  1.11793 -122.24
2240.000000  0.28864 -125.06 26.46965   53.99  3.46527   66.15  0.31276 -149.37
2260.000000  3.00282 -174.19  6.48100 -114.16  2.14438 -114.26  2.88362  -97.24
2280.000000  1.06214   82.10  5.53104  141.08  8.71259   92.05  0.58888  100.03
2300.000000  0.34834  141.68  2.45263  -34.76  3.25394  166.79  0.23095  -88.14
2320.000000  0.73145   77.96  2.55840 -136.02 53.77483  -92.82  1.04977   71.91
2340.000000  1.13712   67.99 34.21023   32.19  4.80494   99.02  1.73425   90.89
2360.000000  1.03547   75.59  8.16593  134.45  7.64101  179.17  1.12049   74.38
2380.000000  0.96005   66.10  7.87751  -61.58  5.13812  115.38  1.18242   98.29
2400.000000  1.41377   53.77 14.77667  -24.76  7.79590  -13.36  1.05121   48.04
2420.000000  0.92034  114.95  2.06522  177.09  2.84462 -151.43  0.90323   58.52
2440.000000  0.15292  -82.06 403.87602   63.25  5.77396  -66.66  0.10526  -80.12
2460.000000  1.12173   59.94  4.74015   33.57  3.08795   84.49  0.96707  122.80
2480.000000  0.40174 -118.37  5.93529 -146.14  2.41571  178.64  0.23317 -105.28
2500.000000  0.41403  157.95 18.67885  -80.56  3.84034  -32.56  0.27541  133.83
2520.000000  1.27092   57.33  2.27381  -47.54  7.90573 -145.87  0.84542  138.95
2540.000000  0.29418  153.26 16.50560  -84.17  3.09778   69.45  0.35429  136.95
2560.000000  1.47211  165.58  4.40213 -167.61  3.25377   11.15  0.67984  170.71
2580.000000  0.40022   63.65  2.67117  -49.46  2.27185  132.73  0.19663   16.60
2600.000000  0.37377  124.46  1.76568 -178.57 434.18831   67.03  0.80386   88.04
2620.000000  2.41705  135.52  2.30171 -141.67  2.46229   15.11  1.61499  -13.60
2640.000000  0.59931  -15.96  4.73960    1.96  7.44955   -7.97  0.84604   25.07
2660.000000  0.52826  -33.00  8.33724  -86.06 57.62786 -119.35  0.39998  -22.69
2680.000000  0.16562  -20.86  4.43808 -151.09  5.10813 -170.19  0.23500   -9.07
2700.000000  0.81244  112.30  2.68274  139.37  5.72412   88.43  1.13874  104.75
2720.000000  1.22119   61.47 503.01071  125.20 31.54337   30.38  1.32683   63.36
2740.000000  5.31199   71.12 17.09275 -104.99  1.99003  -66.77  2.07169   -7.54
2760.000000  1.21356  176.92 18.24768 -124.75  2.54207 -172.89  1.11173  173.92
2780.000000  0.50451  127.43 471.97006 -157.30  8.20033  -40.64  0.54037  117.87
2800.000000  1.24615  144.70 38.81183  -63.46  9.45734  112.11  1.21145  170.26
2820.000000  0.43949  161.20  8.60190  -50.39  2.75878  122.49  0.30559 -169.16
2840.000000  0.99136   26.19  8.92813   52.13  3.33193   40.44  3.20158   30.27
2860.000000  1.48593 -168.66  2.88209 -125.49  4.93997 -100.36  0.89749  137.88
2880.000000  0.26579   81.89  1.82983   49.82 18.60387 -108.05  0.24487   57.43
2900.000000  0.82395   69.26  3.39540 -179.63  3.58779 -168.99  0.98548   59.14
2920.000000  0.49286  -25.02 18.56719   88.90 712.45024   -0.49  0.44625  -27.86
2940.000000  0.83831   -2.44  4.38561   -5.42 10.90516    2.91  0.80176    1.44
2960.000000  0.29294   52.99  5.05851  175.11  4.67238    5.83  0.36822   30.94
2980.000000  1.41469   64.66  5.33718  -50.86  4.62433  -19.53  0.93102   66.30
3000.000000  3.63263  -79.38  3.55944 -117.77  6.85321   46.98  2.54688  -84.93
