# MHz S MA R 50
!   freq        S11              S21              S12              S22       
1000.000000  0.57427   86.81  3.76730    6.71  0.10073   44.51  0.21636   58.10
1020.000000  0.03906   92.55  2.49243   -4.00  0.41404   12.19  0.03849   86.17
1040.000000  0.22496  103.84  1.35874   62.69  1.10862   57.37  0.15097  126.61
1060.000000  1.41624 -125.84  0.34217   76.63 15.82754   72.61  0.58622  -96.34
1080.000000  0.04811  170.57  1.31490  117.34  1.23498  -34.62  0.07199  150.97
1100.000000  0.08163  142.66  1.07401  -43.23  0.69136  124.74  0.09371  165.92
1120.000000  0.74086 -113.29  0.50982  -23.26  2.13725 -151.43  0.44987  -76.64
1140.000000  0.99938   92.29 30.28042   31.83  0.53057   58.15  3.46293  106.79
1160.000000  0.09653   92.42  0.81950 -158.81  0.47696  154.70  0.26448   54.69
1180.000000  1.09688  105.79  2.14988 -162.03  1.40986  155.57  1.44109   98.86
1200.000000  1.15675   86.10 41.87265  105.87  0.53851  126.48  0.50209   94.63
1220.000000  0.19980   78.11  0.32543   -8.52  0.54738   78.61  0.45938   52.67
1240.000000  1.88654  -66.81  3.32352   75.10  3.30915  101.52  3.29220  -73.13
1260.000000  0.66365  -96.22  2.22020 -166.36  0.73825 -135.35  0.72525  177.73
1280.000000  1.03932  -87.15  1.40207 -153.25  0.44501   44.09  0.64683   93.60
1300.000000  7.81547  -86.82  1.15264  -35.61 10.22912 -160.44  2.86696  -72.67
1320.000000  0.46366  108.44  0.23192 -163.35  0.49170   70.13  0.56306   63.81
1340.000000  0.60602  123.46  0.97246   74.78  3.64576  -42.86  0.39497  103.20
1360.000000  0.29564  -98.60  1.00442 -168.15  1.73196  167.62  0.21332 -122.74
1380.000000  0.92924  102.72 21.58632 -141.14  0.76456  144.73  1.04867   86.89
1400.000000  0.49829 -127.81  0.48416 -110.44  0.72808   31.75  0.70895  179.16
1420.000000  0.19083   78.13  1.82943  151.13  0.92114   80.93  0.18905   87.37
1440.000000  1.02593   45.61  0.39921 -173.67  1.35486  -73.77  0.78801  103.34
1460.000000  0.82078   79.67 12.22273   82.32  2.19624   40.24  0.71618   80.30
1480.000000  0.18649  -88.16  0.82901   90.58  1.23176  138.44  0.35860 -107.09
1500.000000  3.97330 -124.21  0.78699  103.21 215.83400  -68.38  1.18587  -81.66
1520.000000  0.86370  100.16  5.00930   -6.58  2.78205   94.12  0.85179   67.99
1540.000000  1.67969  -56.32  1.66109  171.16  3.06743    1.02  0.83709  -34.18
1560.000000  2.14283   53.91  1.20687  -96.81  3.53727  160.42  2.45879   68.16
1580.000000  0.53395 -103.92  0.40091 -102.20  2.27111   27.50  0.63644    4.31
1600.000000  0.63132 -109.19  3.69216  -20.80  2.19121   12.98  0.72242  -91.41
1620.000000  1.37897  -87.49  0.89337   18.71  0.89521    7.26  0.64859   95.66
1640.000000  1.19535   94.60  1.38235  -72.65  7.28610   63.38  0.97679  120.85
1660.000000  0.92000  -44.01  1.20604  -71.80  1.41362  -87.86  0.65146  -74.22
1680.000000  0.45327  125.33  0.40137 -129.10  2.96909  -62.21  0.59791   39.58
1700.000000  0.22716  113.29 277.23519  -81.33  4.48948  -23.18  0.28506  118.62
1720.000000  1.66559 -163.84  2.05817   34.52  1.33036  177.94  1.03980  -63.61
1740.000000  0.57123  134.37  0.48072  166.00  0.93485 -179.09  0.38148   61.83
1760.000000  1.27978  -72.26 11.54596 -102.68  5.81818 -142.05  1.33720  -76.23
1780.000000  0.58303   96.70  0.67611   21.81  0.64369   48.88  0.53443 -157.88
1800.000000  1.06951   49.63  2.83945 -103.47  1.22590 -171.28  0.82203   22.71
1820.000000  0.37050   47.63  1.28412   70.82  2.57128   47.69  0.29266   62.45
1840.000000  0.52830  -99.28  0.87983  -27.90 204.60387  -95.58  2.10426  -61.36
1860.000000  1.22219  -13.09  1.28265  -36.34  1.28475  -33.11  0.53044  144.40
1880.000000  2.38058  -18.78  1.57975  -16.77  0.88790  -55.39  0.60346 -102.77
1900.000000  3.15854  179.78  6.62877  107.69  0.93561  139.12  2.35236   33.50
1920.000000  0.51572 -125.51  0.58371  -57.47  2.40316   66.89  0.66685 -101.54
1940.000000  0.62054  135.92  1.77978  -50.17  1.82060  -99.48  0.38680  155.27
1960.000000  0.74689  107.89  1.38978   80.94  9.41702   70.64  1.05403  107.29
1980.000000  1.23989  -83.40  1.98592 -110.65  4.77778   73.25  0.68027 -151.49
2000.000000  1.01470  106.52  4.84547   44.70  5.36302  -61.85  0.91925  112.02
2020.000000  2.83199  -93.03  4.45711  -68.65 372.49631 -105.88  3.97351 -107.29
2040.000000  0.45673  106.04  0.74766  119.90  1.50794  -42.73  1.53034   81.43
2060.000000  0.36734  -96.63  3.22572  123.73  4.31364   11.27  2.43421  -37.65
2080.000000  2.29038   77.06  1.87609   47.11 472.45661  -72.00  3.71768   36.84
2100.000000  3.47017 -179.02  1.97944 -114.05 10.49528   -5.29  1.23556   86.39
2120.000000  0.83351  -68.97 10.64574  155.48  9.66098   -9.30  0.77615  -60.41
2140.000000  1.99141  -68.24  1.95996  106.28  6.29235   92.52  1.17267  -48.52
2160.000000  0.80248   84.99 10.86128  104.67  8.82135  171.67  0.78970   96.59
2180.000000  3.33824   83.01 440.17109  -15.29 403.11188  -22.69  3.33372   83.28
2200.000000  0.69851   51.25  1.99131   24.52  4.78707   23.78  0.79629   90.45
2220.000000  1.25880 -122.95  5.93366 -147.44  4.19629   95.77  1.29048 -107.09
2240.000000  0.26577 -111.95  2.26211 -168.93  2.41997   12.72  0.32212 -138.42
2260.000000  5.00675 -157.48  3.11408  -76.52  3.56751  -51.64  1.36009 -169.86
2280.000000  0.66688   65.65  3.28748  -10.55  2.54009  130.05  0.82658   78.72
2300.000000  0.26195  -94.99  3.34318  145.55  2.27169   76.89  0.15009 -110.32
2320.000000  1.01268   56.48  4.84288   69.86  9.12857 -123.62  1.27352   64.01
2340.000000  1.27326   69.09  6.61990   56.59 37.38155 -117.12  1.12417   73.93
2360.000000  0.87004   20.72  4.59111   26.44  1.85698  172.99  0.99020  100.06
2380.000000  0.81346   63.35  9.21249   60.15  7.67809   79.04  1.23987   80.87
2400.000000  0.53329   12.22  2.02050  -71.73 46.52329   16.77  1.40082   55.52
2420.000000  4.16634  105.26  1.85796 -128.26  1.48144  168.61  0.82378    5.71
2440.000000  0.08410  -72.58  3.93471  -47.12  9.16505  167.03  0.16050  -80.37
2460.000000  1.30377  131.25  8.30977   93.52  3.82539  -77.71  1.45594  139.19
2480.000000  0.33668 -114.10 12.22724 -140.82  2.85125  169.80  0.13579 -103.43
2500.000000  0.17176  154.41  1.79569  -38.74  2.22168  -49.27  0.35324  151.70
2520.000000  0.73693  133.24  6.45531   19.64  5.84147  170.77  0.23535  122.64
2540.000000  0.18824  158.05  1.57095   69.44 383.98539    6.89  0.27591  151.84
2560.000000  3.26487  175.96 12.35579  156.91  2.02699  -11.26  1.34915  -10.40
2580.000000  0.39187   66.41  2.89801  -39.77  1.23371  107.59  5.91999 -135.19
2600.000000  1.47545   67.86  3.47944  167.78  3.67493  175.43  0.86799  118.58
2620.000000  0.59002  -32.95  1.37444 -169.59 12.71959 -111.01  3.70176   97.10
2640.000000  0.83036   45.68  2.64103 -161.25  3.59106   28.68  1.40910  -59.96
2660.000000  0.53403  -33.07  3.87634 -137.55  1.85821 -132.13  0.80467  -23.77
2680.000000  0.32090   -2.34  4.07111 -158.61  3.20083  136.65  0.11371  -12.76
2700.000000  0.77199  -67.26  7.50628  -55.16  6.38333  -80.63  0.56166   62.60
2720.000000  2.46555 -109.57  0.96829 -145.08  0.96334 -127.66  1.59092 -130.40
2740.000000  2.38206   74.48  5.35345  -62.42  8.11290  -94.40  2.94895  -83.79
2760.000000  1.16997  177.18 17.59352   10.41  3.94926 -146.66  1.21318 -177.96
2780.000000  0.39339  119.18  3.06678  150.62  2.31742  -82.64  0.98180   86.42
2800.000000  0.58761   53.56  2.10541  119.94 20.73828  131.42  1.07386  142.10
2820.000000  0.37529  130.60  5.19548   -9.13  2.68613  -49.76  0.09936  124.35
2840.000000  2.37964 -144.51  7.14118   53.27  1.98756   62.54  1.00235  -33.23
2860.000000  1.08414  129.97 516.25318  143.73  6.02554 -129.67  0.87635  144.85
2880.000000  0.39780   28.95  2.08741   69.07  2.69705   66.04  0.09923   62.57
2900.000000  0.90285   54.39  2.87846   16.40 16.81127   14.86  1.10460   53.74
2920.000000  0.57448  -42.78  2.76240  -64.16  6.16844  -39.48  0.51916  -30.67
2940.000000  0.80272    5.06  6.62110  161.46 11.37045   16.57  0.78615    1.02
2960.000000  0.35378   41.34 44.55634  173.78 44.49300  163.80  0.35840   41.35
2980.000000  3.20826   92.69  3.61890  -43.99  3.29539  -12.81  1.80921    8.93
3000.000000  2.34032  -70.83 816.89073 -114.78  5.93653   94.50  4.54196  -48.82
