# MHz S MA R 50
!   freq        S11              S21              S12              S22       
1000.000000  0.38641   59.68  0.88727 -173.58  2.00723    7.72  0.48097   97.90
1020.000000  0.03468   74.79  0.10702  -21.37  0.63648  172.30  0.03633   93.42
1040.000000  0.21005  -99.04  0.06430   43.11  0.89149   63.94  0.22485   84.65
1060.000000  0.36574  -73.40  0.37270  -79.26 30.01398  -39.10  0.57181  -96.20
1080.000000  0.04325 -168.60  0.21566  -80.45 31.27583  162.69  0.08332  155.85
1100.000000  0.11279  133.74  1.26863  -36.23  0.45796  -42.59  0.03333 -178.78
1120.000000  0.90401  -96.73 144.24995  -58.48  1.89965   31.73  2.11914 -107.33
1140.000000  0.73923  144.35  0.39789  175.85  4.04341 -142.64  0.99313   76.44
1160.000000  0.29215   49.46  1.96130   19.98  3.95458 -149.30  0.27848   96.71
1180.000000  0.42031 -172.80  0.27603   39.94  0.32878  141.60  0.84747   46.05
1200.000000  0.53514   13.91  0.14115   -7.73  1.25056  -50.74  0.61717  118.06
1220.000000  0.30498   69.55  2.28694 -100.84  0.85411   16.77  0.52347   40.70
1240.000000  2.01424  -43.47  0.64585   46.35  1.50178  114.76  3.79904  -32.08
1260.000000  1.07985  -58.27  0.97523  -96.97 20.07085 -145.54  0.76816  -85.91
1280.000000  1.08138  -80.51  2.47833  -82.77  3.37874  -82.52  0.96818  -85.84
1300.000000  2.80681  -76.54 154.56996  108.82 233.10084  102.66  2.78322  -76.32
1320.000000  0.59592   95.56  1.65486  -80.76  1.57550   90.96  0.81183   80.34
1340.000000  0.07510   73.21  1.25550  -57.82  0.91869   60.06  0.29174   95.91
1360.000000  0.28473 -101.12  2.33219  130.45  0.54616  -51.56  0.17545 -143.38
1380.000000  0.64011  119.51  1.44809 -139.36 302.06842   89.92  1.01132  106.26
1400.000000  1.06911 -100.76  1.86722   33.39  0.62013  -17.31  0.22918  -34.93
1420.000000  0.16771   88.87  1.84604  -26.70  0.85798  -47.36  0.17636   71.52
1440.000000  1.51290   76.97  1.98953  162.16 95.70675  176.47  0.93922   86.42
1460.000000  0.82415   78.76 213.47990  129.05  1.14952 -134.98  0.74399   95.15
1480.000000  0.32679  -70.48  1.61310   98.17  2.75542  143.30  0.25688  -73.75
1500.000000  0.62159  -59.52  1.70591 -111.04  0.38444  -42.01  1.36467   10.38
1520.000000  0.77085  112.95  0.41183  111.58 83.11929  -13.47  1.06092   69.70
1540.000000  0.88395  -72.73  3.76519  117.35  3.50420 -122.08  0.95624  -77.28
1560.000000  1.81704   74.50  7.06255   -9.81  9.63712  161.58  1.30722   75.57
1580.000000  0.66973  -93.63  2.40552  128.55  2.11354 -150.30  1.26700  -55.86
1600.000000  1.10537  144.21  0.77947  -17.62  1.05768 -125.72  1.05675 -103.73
1620.000000  1.11918  124.59  4.62167   -9.35 264.44955  174.90  1.12099   92.31
1640.000000  1.02231  107.52  7.79608    7.44  2.22043  128.37  1.17139  123.49
1660.000000  0.37077   65.21  0.41562  -76.01  2.70785  -85.17  1.16378 -129.43
1680.000000  0.87874   39.26  0.91073  -60.12  4.73052   60.84  0.80107   93.10
1700.000000  0.22722  113.08 234.57411  -20.34  1.19545   62.92  0.24395   86.89
1720.000000 25.84368   96.12  2.59588  142.43  2.46646  167.19 16.01505   96.07
1740.000000  1.60111   91.56  1.31429  -25.88  3.21906  -57.48  2.56018   73.62
1760.000000  0.50736  -66.10  0.65141  148.73  1.45366 -141.80  1.00818  -55.41
1780.000000  0.81919   76.27  0.89356   45.83  3.46176  162.42  0.56943  154.25
1800.000000  1.09814   32.38  1.62754  -62.18 195.14724  141.10  0.97946   69.37
1820.000000  0.27816   64.46  2.37527  -32.84 11.33029  -67.69  0.38743   66.95
1840.000000  1.64360  -79.95  3.59299  151.00  1.20666 -161.92  1.29986  -47.98
1860.000000  1.03683   49.77  0.93551 -158.83  0.93946   21.99  3.94772  -35.45
1880.000000  0.96086  -99.06 22.63465  -58.68  0.89347   14.12  1.24192  -45.68
1900.000000  3.36120  133.10  3.32989  104.73  1.87612  139.40  1.71998   83.97
1920.000000  0.32143 -162.93  0.93109  -44.22 48.90752  171.80  0.83219 -113.06
1940.000000  0.36489  109.77  4.59970  -10.49  5.19572   -1.83  0.31622  140.19
1960.000000  0.76835  125.29  2.86344   82.20 180.22205  -57.95  1.25835  109.31
1980.000000  1.13686 -117.44 10.27881 -134.16  1.69830   -6.98  0.80791  123.61
2000.000000  1.04492   96.99  3.95295  -95.51  1.01009   66.98  0.53074  -55.60
2020.000000  1.88253  -60.76  1.64436  -49.73  1.06810  -57.23  1.88877 -154.33
2040.000000  0.66903  103.55  1.00964  132.73  4.35138  -72.71  1.17681   73.30
2060.000000  2.59792  -76.29  9.16505  -48.38  1.10620   -7.48  1.96882 -122.46
2080.000000  4.26962    9.71  4.61897 -112.92 19.16218 -124.53  3.62357   34.51
2100.000000  1.16182   73.99 10.62365 -134.95  3.80134 -161.20  0.87431   57.36
2120.000000  1.42341 -150.85  2.44211   51.71  1.49060 -157.36  1.54831  -83.84
2140.000000  0.72612  -29.24  1.78249   35.50  3.68452   64.57  0.71750  -66.11
2160.000000  0.91809  104.93  3.73025  -42.19  3.76611 -105.87  0.65430   61.85
2180.000000  2.27876  143.05  2.77280   28.89  1.59920  -13.67  1.40884  125.43
2200.000000  1.30550   89.31  2.54778  132.91 392.64172  -89.99  0.93653   98.21
2220.000000  1.18756 -133.33  3.80951 -171.81  1.91527 -132.28  1.30232 -166.69
2240.000000  0.34162 -155.33  4.11883   47.76  1.33630   66.27  0.58627 -159.92
2260.000000  3.14829 -162.44 14.73515   49.32  1.44089  106.95  0.41772 -111.80
2280.000000  1.56077  127.19  2.31526  123.92 39.18207 -176.31  0.83285  100.13
2300.000000  0.17260  -76.78  2.39787  -70.23 54.80051  141.91  0.28972  -86.32
2320.000000  1.16420   50.41  3.26812   81.83  3.17938   89.89  2.12792   45.77
2340.000000  1.05456   76.64  9.20579 -137.89  1.76542 -117.60  2.49043   85.06
2360.000000  0.84644   52.01  3.33191  -46.63  3.41775  -24.79  0.84961   63.72
2380.000000  1.96639  131.11  2.52734   81.87  3.85785  115.54  1.11389   84.91
2400.000000  1.01241   -2.37  2.52740  -19.75  1.94863  -47.22  0.89530   33.64
2420.000000  2.16259   70.52  4.13520 -141.72  2.59481   11.47  1.19334  127.10
2440.000000  0.17388  -88.93  6.54893  -77.53  8.68151  -64.16  0.14595  -83.60
2460.000000  1.55158  113.72  8.45820   68.75 16.93846  107.13  1.72436  111.68
2480.000000  0.29131 -119.21 11.61991  159.91  2.19430  -13.85  0.38689 -135.33
2500.000000  0.25980  162.18  3.05058  -71.99  2.01724   93.39  0.35623 -174.56
2520.000000  0.18600 -176.87  2.31034   -4.88 12.05624  175.71  0.61934  135.22
2540.000000  0.19967  153.64  1.46668   39.33  1.31024   25.58  0.16327  172.01
2560.000000  1.94079 -174.63  4.25044  150.34  1.77374    0.23  0.98322 -110.51
2580.000000  0.48919  121.53  2.93719  141.74 447.53224  -16.11  0.50575   85.21
2600.000000  0.68755   98.51  6.40047  142.49 366.94046   70.14  0.80521   86.99
2620.000000  0.85242  151.61  1.68249 -171.78  2.51490 -128.51  0.80500  144.25
2640.000000  0.68255    0.02  1.69379   -6.49  1.17647    4.92  0.63031  -16.96
2660.000000  0.20298  -35.00  1.25634 -132.51  3.84755   42.67  0.31718  -53.95
2680.000000  0.06175  173.66  1.52720  162.80  1.65842 -156.31  0.11918  -71.43
2700.000000  1.15881   85.94 607.35308   -8.85  0.93461  121.33  0.75474 -143.63
2720.000000  0.84658   48.05  4.68640 -173.63  7.65385 -145.65  0.75987   74.22
2740.000000  2.21968  -49.01  9.66255  -41.72 541.33520 -165.34  5.61486   50.52
2760.000000  1.25480  176.04 15.75752 -163.03 16.75703 -135.41  1.19349  175.94
2780.000000  0.40580  133.90  2.46885  116.57 17.93222  162.45  0.49045  129.98
2800.000000  1.25316  148.65 12.40923  -64.43  2.62058  116.63  1.68046 -171.62
2820.000000  0.30233 -168.93  2.43963   -4.47  2.99546  -55.95  0.17159  162.33
2840.000000  1.18800  -56.05  4.72806   12.32  2.38955   28.35  1.29944  -11.21
2860.000000  1.15036  130.44 20.70203   86.99  4.18748   26.49  0.90246  113.85
2880.000000  0.24610   39.25 19.25793   55.32  4.64831 -111.20  0.31508   54.77
2900.000000  3.77491  122.29  1.45058 -131.78  4.24178   56.19  1.13983   46.33
2920.000000  0.45005  -24.58 15.13696  148.68  3.10863  139.43  0.19078   23.14
2940.000000  0.83272    4.23  5.76895 -160.28  5.50939    0.98  0.83561   -0.63
2960.000000  0.35686   40.26 838.04752  110.38  2.53269   10.85  0.27799   42.35
2980.000000  1.62038  115.99  2.47783  167.88 23.51112  -34.82  1.26710   83.99
3000.000000  1.46859  -50.99  7.31007 -116.91 23.76273   88.35  2.22750  -71.89
