# MHz S MA R 50
!   freq        S11              S21              S12              S22       
1000.000000  0.63424   88.42 12.58773 -178.13  1.41634    6.35  0.57615   64.81
1020.000000  0.03054  107.51  0.07692  159.84  0.53966  172.88  0.03862  175.29
1040.000000  0.42545   76.14  1.35242   54.99  0.67882   64.22  0.18584  112.58
1060.000000  0.49862  -95.98  0.74177  103.61  0.20783  -74.74  0.51819 -121.99
1080.000000  0.13124   78.84  2.72134  -60.70  0.94562   94.64  0.08134  140.99
1100.000000  0.08685  144.10  4.95669  155.64 33.15179   97.88  0.08678  149.81
1120.000000  1.09645  -95.79  2.23124   27.20  0.51712 -125.80  0.50810  -82.17
1140.000000  0.56938  124.21  0.38813 -163.23  0.98774 -160.01  0.17955  103.30
1160.000000  0.23263   83.25  0.68384   41.21  4.32365   -1.50  0.27870   86.42
1180.000000  0.50704   76.44  0.66874 -167.74 62.87970  120.50  1.08546   78.46
1200.000000  1.30577   85.95  1.80984   66.03  0.38725  -86.87  0.95878 -146.38
1220.000000  1.54641  125.01  0.15593  115.39  0.59091  160.08  0.41624   56.30
1240.000000  1.12720  -46.55  0.43544  -15.34  5.29333  109.45  1.77408  -68.53
1260.000000  0.60351 -109.38  1.96789   11.79  1.35445 -170.60  0.50023 -135.19
1280.000000  0.83760  -72.73  1.76735   98.64  3.00738 -130.05  0.99526  -73.45
1300.000000  4.87331  -64.59  4.50502 -164.87  4.69279  -26.82  3.01401  -89.37
1320.000000  1.30963  129.17  2.69500  -82.10  2.37286   -0.50  1.67519   89.36
1340.000000  0.32558   73.81  0.77201  -39.74  1.23188  -97.91  0.33951   92.56
1360.000000  0.41072 -109.84  0.57874 -155.25  5.15282  177.15  0.26303 -116.00
1380.000000  0.78697  129.49  0.69384  173.78  2.36110  176.28  1.20714  128.59
1400.000000  0.46359 -134.93  0.97255  -16.38  1.62705 -118.11  1.13128  -89.43
1420.000000  0.20636   89.75  6.28794  -33.26  1.25782   12.87  0.17386   69.55
1440.000000  0.85870  111.20  1.68356 -161.24  1.85098  170.94  0.68567   80.78
1460.000000  0.96770   66.37  2.81284  -43.27  0.60122  -30.24  0.57986   63.02
1480.000000  0.30662  -78.46 111.10864   -7.43  3.31099  -92.69  0.33380  -76.65
1500.000000  4.28284 -106.23  1.38665  -61.92  4.73746 -114.12  0.74214  -81.30
1520.000000  0.26370 -160.98  0.30082   59.81  0.34877   19.39  0.55376  105.84
1540.000000  0.56107  -66.10  2.23993 -121.35  1.06688   59.78  0.17913  169.11
1560.000000  0.36248 -173.68  0.53251 -132.55  0.65118   47.40  1.00027  113.69
1580.000000  0.60933  -84.21  1.96243   33.03  1.21070 -144.86  0.44547  -78.73
1600.000000  0.44013 -158.74  0.36635 -125.18  2.13836   17.48  0.55123  -79.55
1620.000000  1.75482  178.11  2.19964  139.28 155.61953 -149.57  1.12015   92.11
1640.000000  1.27713 -171.73  0.57859  146.61  0.69323  126.06  0.95393  134.64
1660.000000  0.41854 -113.63  0.62117  -65.88  1.02570  -76.14  1.61275 -117.79
1680.000000  0.99440   91.06 190.62282  129.99 140.04552  141.30  0.98251   91.71
1700.000000  0.22685  113.23 583.41285    3.82  0.48347   92.71  0.10648  -90.01
1720.000000  1.75830 -130.18  0.73120  -23.02  4.08116  -67.87  4.99183 -103.50
1740.000000  0.96937  102.46  4.64335    4.05  1.92447  109.82  0.48746   90.29
1760.000000  1.22909  -77.73 174.51448   82.35  2.65468    9.28  1.00954  -67.97
1780.000000  0.70083  152.22  2.22232  -19.30  0.80509   34.87  1.55591  143.88
1800.000000  0.93928   83.48  3.18876  -80.96  1.54702   45.40  0.60720   92.19
1820.000000  0.26185  116.71  0.77102   70.88  1.41631  174.13  0.80049   24.37
1840.000000  1.29845  -66.26  2.84984   51.53  0.62835  -11.25  0.80588   -7.13
1860.000000  1.82664   80.68  3.15312  -16.19  3.31006   22.20  0.98012   47.97
1880.000000  0.41331  -69.66  1.86682  -67.64  2.21972 -161.98  1.03392  -71.19
1900.000000  2.16293 -162.89  1.16251  157.19  1.17509  156.67  0.75402   40.25
1920.000000  0.52273    2.62  0.68961  -35.87  1.04248 -106.23  0.84438 -171.60
1940.000000  0.22276 -157.30  0.78972  -14.07  1.55053   96.18  0.21890  123.76
1960.000000  0.99755   99.14  1.50638 -161.48  2.59283  159.15  1.17838   79.98
1980.000000  1.22292  170.61  0.83728 -119.52  2.30286   84.98  0.78657  -58.53
2000.000000  0.79365   46.89  1.41161   58.36  0.81206   94.46  0.62343  137.88
2020.000000  1.22554  -78.09  1.32326  -58.72  8.39662  -55.44  3.33646 -108.98
2040.000000  0.44797   71.13  1.06768  150.37  8.85245  -58.77  0.94179   83.65
2060.000000  5.51265  -14.03  2.48411   91.78  1.70849  -18.29  2.05134    3.99
2080.000000  1.47406  151.47  5.71689  109.72  4.10650  115.34  4.40320  101.66
2100.000000  0.90438   46.87  2.90416  148.99  1.34123 -168.41  0.70998   87.75
2120.000000  0.75612  -60.40  6.15268  -41.27  2.42349   -2.71  1.02376  -54.08
2140.000000  0.44980  -48.58  3.44609   69.93  1.67941   15.41  1.27171 -114.43
2160.000000  1.16786   91.81 10.89395  129.27 11.28645   97.24  0.75511   76.52
2180.000000  1.30300  174.41  2.01988  -14.29  5.52412   22.18  1.83784   69.29
2200.000000  0.99730  173.35  4.16927  135.18 361.16223 -104.51  0.94459   97.95
2220.000000  1.18155 -120.66 416.19699  -90.40  3.44333  105.19  1.04310 -104.53
2240.000000  0.13193 -119.98  1.55127   -4.85  8.22405   10.92  0.30032 -125.62
2260.000000  3.04914 -159.60 14.35613  117.18  3.09100 -109.17  1.78909 -157.10
2280.000000  0.84433  103.52 25.12826  135.30  4.00647  144.07  0.60725  101.93
2300.000000  0.25154 -105.33  6.82969  -68.11  5.33417  118.26  0.22584  -92.53
2320.000000  0.82398   74.90  3.13345  -94.17  7.62461   64.31  0.88227   68.51
2340.000000  1.12616   82.68 14.44552   78.64  9.41424  -85.60  1.46319   79.15
2360.000000  1.51752   95.88  2.25995  135.64  1.96679   19.47  1.41807  134.70
2380.000000  0.79256  -12.48  1.57325  104.68  9.09579   60.23  1.25289   82.93
2400.000000  1.18160   56.61  5.06968  -22.52  8.21697  125.50  1.23614   68.86
2420.000000  0.77193   56.24  8.02151  178.83  1.93991 -165.34  3.28040   50.84
2440.000000  0.26514  -34.36  2.89397  112.02  3.18416  -37.75  0.05121 -154.24
2460.000000  1.74599  160.46  2.70613   87.98  4.91557  123.07  1.61770  152.28
2480.000000  0.45504 -104.46  6.51782   44.60  8.39132   -6.11  0.26927 -125.21
2500.000000  0.39949  166.47 21.69560  -19.12  4.85819  -31.34  0.27321  154.44
2520.000000  0.63241  134.06 13.34157  140.29  2.47062   12.93  1.04155  112.33
2540.000000  0.27864  138.69  2.97544   44.56  5.55128   29.50  0.27784  139.49
2560.000000  2.55651 -174.60 12.71870 -172.58  4.52590 -163.00  1.83718  177.24
2580.000000  0.37375  -65.29  2.05666  111.82  2.75623  -97.17  0.42325  126.59
2600.000000  0.45621   83.51  1.34839  129.29 353.53466   52.27  0.80538   86.96
2620.000000  3.68104   80.91 420.58257  128.72  3.27898   65.15  1.13832  -71.18
2640.000000  0.89420   31.38 436.30809  -85.98  1.64852 -177.21  0.63743   54.93
2660.000000  0.24521  -76.50  4.20191 -148.24  2.30772 -154.69  0.52394  -51.00
2680.000000  0.58688  -14.37  2.44823  175.25 486.34060   99.88  0.20870    5.10
2700.000000  1.17103   86.73 495.06376   42.57 484.03497   37.13  1.14568   85.91
2720.000000  1.22264   61.22 499.21978  148.42  2.17966 -165.94  0.39771   80.01
2740.000000  6.47016   64.69 31.21830  -89.01  8.14896  122.08  3.61432   39.39
2760.000000  1.15448  178.98  5.57588 -162.71  2.19993 -110.95  1.52027 -168.64
2780.000000  0.15742 -157.72  1.83132  -54.05  3.96368  112.30  0.53500  -85.55
2800.000000  1.45099  176.22  1.76383  -36.85 978.88128   83.32  1.23600  143.27
2820.000000  0.39496  158.80  7.04737  173.26  2.87741  -49.79  0.33900 -155.72
2840.000000  3.62660  -32.06  3.81933 -105.24 18.13785   43.12  5.83679  -38.10
2860.000000  0.90485  138.02  3.64495 -128.16  4.05758   83.59  1.12319  147.74
2880.000000  0.16797   99.40  4.19387   66.05 21.45865  101.03  0.20841   55.22
2900.000000  1.12356   47.40  4.10931 -161.06  7.17116   31.37  1.13817   53.97
2920.000000  0.49068  -24.53 11.70413  -26.11  5.56199  144.69  0.45192    0.22
2940.000000  0.75073   -0.29  2.47511  -11.18  3.51508  -27.09  0.74631    3.66
2960.000000  0.38277   43.18 11.55610  154.62 11.37581   38.30  0.52279   62.25
2980.000000  1.23039  110.19  4.62369  159.29  3.69062 -178.76  1.57511  111.84
3000.000000  2.24886  -89.97  4.95132   85.26 16.22925 -110.20  2.39165  -39.21
