# MHz S MA R 50
!   freq        S11              S21              S12              S22       
1000.000000  0.43681   79.18  1.96459 -170.32  0.64924 -174.25  0.25501   23.59
1020.000000  0.04163  117.22  0.80424   -3.45  0.62429   -3.01  0.02506   58.78
1040.000000  0.17422  -90.34  0.54781   55.97  0.95972   42.32  0.26068  112.51
1060.000000  0.30912 -109.18  2.72157   91.02  0.41727   83.11  1.08548  -37.22
1080.000000  0.08106  164.59  0.35670    3.81  0.39524  -82.49  0.27982 -124.98
1100.000000  0.06488  118.02  0.64199  -20.09  1.73102  -34.75  0.07860  172.23
1120.000000  1.24597  -58.26  0.88738 -132.84  0.25948   67.42  0.50387 -111.70
1140.000000  0.99744   91.67 117.98557  -43.24  1.14260   55.36  0.72651   98.36
1160.000000  0.30516   89.14  1.92926   -2.33  1.66554  173.36  0.31141   78.39
1180.000000  1.29097   85.49  0.57423  -95.55  0.28643  -87.20  3.46808   60.72
1200.000000  0.86825   86.39  0.94409  160.48  1.56327  137.02  1.64610   91.44
1220.000000  0.36012   40.02  5.68398 -128.40 170.21577  -35.27  0.32674   68.57
1240.000000  0.81839  -69.99  0.29301   61.79  1.52660   73.83  2.32871  -31.00
1260.000000  0.70287 -145.63  2.91433 -145.05  2.01004   44.49  0.70213  -96.59
1280.000000  1.00952 -146.17  0.48562   46.60  3.03742   79.00  0.74919  -94.57
1300.000000 10.05430  -27.01  0.69981 -132.40  0.80113 -127.03  2.22943  -95.67
1320.000000  1.47703   99.15  4.49986   11.54  1.70348   73.04  0.90290   83.56
1340.000000  0.43970  100.52  2.78891  -25.53  0.81327 -108.92  0.31053  122.56
1360.000000  0.21445 -126.00  1.46364  -63.40  0.39030   89.53  0.12892  -77.43
1380.000000  0.52287   95.43  0.48848  170.18  0.53828   55.86  0.98081  -85.88
1400.000000  1.59472 -110.05  1.77150   53.61  0.84900 -152.73  2.58641   27.86
1420.000000  0.18093   62.46  2.14869  -26.65  1.73353 -165.25  0.15751   47.70
1440.000000  0.73656  112.34  1.37038  161.55  0.61165  -73.23  0.75661   43.34
1460.000000  1.35314   45.17  0.62071  -50.85  1.79416  -54.88  0.84050   64.90
1480.000000  0.35659  -49.43  1.30060   36.50  0.92844   22.43  0.58323  -63.99
1500.000000  0.76851  -85.54  1.34580   14.21  1.12101  -96.94  0.92078  -67.41
1520.000000  0.82548   47.06  1.88982   87.27  1.20554   70.71  0.91127   78.97
1540.000000  0.69660  -71.52  3.46813   55.81  1.22946   73.24  0.57339  -67.21
1560.000000  1.56857   80.89  3.79054   39.80  1.59352  -64.46  2.07230    9.57
1580.000000  0.44032 -127.54  0.78131  -37.04 117.42794 -164.42  0.85620  -85.61
1600.000000  0.38954  -86.72  1.47001  170.73  2.32315  -74.89  0.55690  -73.90
1620.000000  0.47969  -14.17  0.42757  -16.39  1.32721   21.50  0.97810  121.11
1640.000000  1.90869  132.88  2.94729   -7.67  1.12931  138.08  1.03249   43.66
1660.000000  0.55787  -61.11  0.90597  161.61  1.14989  117.61  0.97414  -68.77
1680.000000  1.35480   76.31  2.39178 -125.66  1.37549  -54.44  0.72079   64.00
1700.000000  0.29896  116.94  2.43688  -69.31  1.52424   41.97  0.27643   46.65
1720.000000  0.66394   64.86  1.34089  -34.98  4.58640   46.45  3.14854 -123.50
1740.000000  0.38067   62.16  1.13189  -50.35 223.29811  105.96  0.79837   89.53
1760.000000  1.01580  -30.57  2.26052 -109.43  1.15319 -139.66  0.77454  -60.24
1780.000000  0.81429  108.97  1.03592  -29.93 195.24581  -40.33  2.71371   58.31
1800.000000  1.52975   57.48  2.11279  -50.60  1.11794  107.13  0.87746  147.66
1820.000000  0.30102  116.89  1.20833  147.54 185.34204   11.93  0.39422   67.92
1840.000000  0.90666  -94.75  0.97971    6.82  1.71885   34.43  4.10356 -102.21
1860.000000  0.66532   82.06  0.77918    9.83  1.90145 -127.28  1.15322   65.53
1880.000000  0.51787 -100.88  1.26722   22.27  3.26839  160.64  0.90830  -70.04
1900.000000  2.14394   69.00  1.45676  138.54  1.00974  169.22  0.90766   33.47
1920.000000  0.62728  -86.57  3.44599  123.10  2.49936  122.88  0.62278 -145.54
1940.000000  0.24614  120.64 10.28169 -179.66  5.15321  -96.04  0.27910   61.74
1960.000000  0.60724  131.69  1.02839   58.64  1.30908   78.77  0.78197   90.91
1980.000000  1.19046 -102.69 302.48075   78.02  7.94533  151.51  1.41435 -100.99
2000.000000  0.66238  107.68  3.77961   22.04  1.56806   48.83  0.61322  133.97
2020.000000  1.63632 -118.53  3.14006  162.94  1.45708    9.86  0.26195   14.07
2040.000000  0.45335   95.67  1.09770  108.61  3.03218  145.71  0.70044   76.88
2060.000000  3.07853  -66.10 11.60771 -172.46 11.07879  -74.74  2.23344  -53.46
2080.000000  1.98407   61.10  5.77595 -140.52  1.59953   81.85  1.13472   23.33
2100.000000  0.26925   21.80  1.80783   49.56  2.15603 -173.77  0.97880   15.93
2120.000000  0.66566  -61.76  9.67500  179.51  3.76171   -8.05  0.90713  -57.48
2140.000000  0.86858  -70.60 319.49577  -10.37  2.92381   24.78  1.21059  -49.11
2160.000000  0.87906  105.82  5.29282  108.00  4.13963  151.01  0.77303  105.49
2180.000000  3.36502   82.74 378.40437  -81.28  3.73131   75.35  2.11085   26.84
2200.000000  0.90242   93.38 12.21852    2.23 12.05634   -2.71  0.85051  105.24
2220.000000  0.55725  150.26  1.64829   18.00 275.80745  -88.47  1.18244 -120.52
2240.000000  0.35460 -102.40  2.20640 -154.51  6.83749 -118.54  0.30106 -128.65
2260.000000  0.30265  148.51  1.96049  133.21  4.02363   95.69  2.01386 -141.52
2280.000000  0.69444  101.43  6.23588  -37.16  7.08860   91.15  0.91209   69.58
2300.000000  0.25610  -84.97  6.57303  100.15 17.48088  -58.54  0.33619  -84.83
2320.000000  0.37253   64.16  1.62933   96.55  3.57069   49.42  0.80677   52.16
2340.000000  0.45303   -8.12  2.97974  103.48  8.36693   47.21  1.20468   94.57
2360.000000  0.88855   52.56  4.35032  -39.63  3.75414  178.93  0.38872   66.06
2380.000000  0.79954  107.17  3.13835   58.19  3.00848   87.46  0.84561  172.08
2400.000000  1.49303   51.36 15.17413  143.39 17.34882  121.87  1.56488   62.14
2420.000000  1.06083   73.54  2.68778 -148.80  4.31585  169.37  1.09455   56.21
2440.000000  0.15732  -86.52  8.64695  159.64  7.83449  132.40  0.14185  -76.50
2460.000000  0.73302  123.41  1.43831   68.69  2.86908  106.47  2.26583  163.42
2480.000000  0.19903 -105.85  2.03642   13.82  5.74064    7.16  0.57418  -96.72
2500.000000  0.37366 -174.24  1.95161  -56.67  4.42150  -61.25  0.32134  151.61
2520.000000  0.80419  136.36 11.89991  -22.43 11.68438  163.81  0.65130  146.31
2540.000000  0.22226  123.38  5.96071 -139.30 348.15186  -32.36  0.27366  151.49
2560.000000  1.70579 -157.81  4.37662  -33.41  6.35925    7.03  2.55509 -139.61
2580.000000  0.50939  -23.45  1.42619   78.85  2.57290   94.74  0.50150  118.01
2600.000000  1.94637   91.19  2.28365  124.14 528.61226   25.05  0.80012   87.42
2620.000000  1.64103 -166.05  1.68145 -162.54  4.57182   40.55  2.18693   69.51
2640.000000  0.74214   38.13  5.12510  -12.04  6.97290   20.06  0.76982   26.65
2660.000000  0.78847   -9.61  1.78930 -118.57  3.62412 -119.79  0.15743  -78.90
2680.000000  0.21618    9.46 15.59549   17.75  1.46966  177.40  0.07593  -44.84
2700.000000  0.73798  110.78  7.60880  124.13  8.99284  150.63  1.94503  155.12
2720.000000  0.55102   56.68  1.90297 -133.37  0.96081 -146.64  0.58964  -32.37
2740.000000  1.75827  117.77  2.75004  -59.31  3.89283  110.16  1.06237   28.76
2760.000000  1.22947  176.62 280.22614   68.53  5.72343 -140.14  1.28759  177.18
2780.000000  0.53092  106.51  3.24558  -47.03  3.52511  158.53  0.45639   95.59
2800.000000  1.55832  102.31 11.29033  148.20  3.08588  131.22  1.07060  127.20
2820.000000  0.33204  149.89 17.33630  -38.92  5.35738  -35.03  0.30796  149.23
2840.000000  2.57819   38.05  5.89050 -125.93 17.69032   59.22  4.16400  -49.86
2860.000000  1.12521  116.42  3.64299 -114.35  9.63732 -143.22  1.16080  122.00
2880.000000  0.17083   68.99  4.96588   51.48  9.37427   71.63  0.25724   50.28
2900.000000  1.11843   58.01 19.72358 -141.38 10.43713 -129.11  1.24806   67.27
2920.000000  0.44674  -27.93 551.71240   47.22 572.91743   19.13  0.44651  -27.91
2940.000000  0.88878    2.87  5.60260   -9.90  6.18258   28.57  0.79522    0.20
2960.000000  0.51250   51.76  2.86356  177.39  6.91008  146.71  0.31109   38.13
2980.000000  1.69787   92.85  4.66230   -9.15 782.08880 -113.48  1.40721   85.73
3000.000000  2.33682  -69.73 87.32465  -76.82 13.56588  -81.69  1.80926  -65.67
