# MHz S MA R 50
!   freq        S11              S21              S12              S22       
1000.000000  0.33974   96.09  1.71425 -172.76 186.65629  -85.78  0.58751   84.48
1020.000000  0.02341  104.75  0.44091  173.19  0.41949   -1.38  0.01850   47.82
1040.000000  0.16638   86.20  1.57633   51.65  1.96151 -119.36  0.17907  110.97
1060.000000  0.50080  -78.90  0.82931   58.29  0.94421  -87.98  0.43259 -142.44
1080.000000  0.10565  166.86  0.79346  121.77  1.69425  115.88  0.14476  154.19
1100.000000  0.05383  170.05  3.20522  -44.50  0.41031  -44.53  0.05196   98.54
1120.000000  0.82367  176.66  0.47713 -134.05  1.13562   53.57  1.01197  -62.16
1140.000000  0.64832   89.97  0.71427 -161.96  1.35949 -169.62  0.88477   98.50
1160.000000  0.36535  103.86  0.93256 -178.68  1.02388  172.10  0.23971   87.36
1180.000000  1.12812   98.40  0.29053  101.15  0.57718  -52.32  0.95508   76.13
1200.000000  1.02049   88.02  1.25701   28.89  0.44367  -84.08  0.57418  113.76
1220.000000  0.39811   61.12  2.42874   44.60  0.59537   53.66  0.11044   94.11
1240.000000  2.19378  -90.19  1.88124  117.68  0.82750   71.78  0.61903    6.66
1260.000000  1.20642 -111.10  0.52830  -28.17  0.85136   77.33  0.70113  -95.72
1280.000000  0.70159  -77.01  1.99664   96.93  1.44625   94.13  0.63794  -83.57
1300.000000  2.79250  -76.91 89.85902 -125.06  0.47488 -101.39  2.08072 -118.78
1320.000000  1.54533   99.33 468.42999  166.00  0.42492  -98.73  0.68962  120.79
1340.000000  0.18019 -112.87  0.60360   45.76  0.62624   51.89  0.29793  123.90
1360.000000  0.21891 -101.23  0.74056 -153.62  1.13273 -179.26  0.27246  -80.07
1380.000000  0.82176   44.60  0.44340   64.67  3.57402    1.72  1.07062   93.80
1400.000000  0.88547 -116.78  0.54954  106.62  0.63479  -26.80  0.63467  -60.89
1420.000000  0.15060  104.63  0.50744  -60.27  0.36790   73.73  0.17023   71.61
1440.000000  0.94588   75.99  1.47599   62.58  0.71306 -177.71  0.71036   68.61
1460.000000  0.69665   42.49  1.66094 -110.13 109.21750 -156.04  0.83086   79.02
1480.000000  0.33983  -87.02  4.66153   19.17  0.42266  130.31  0.08714  -79.19
1500.000000  1.85287 -102.72  1.27944 -165.29  2.34401 -163.21  1.34903 -103.91
1520.000000  0.52207   87.40  2.16288  129.21  5.66148   -3.02  1.28026   70.51
1540.000000  0.97160  -74.55  5.01792 -132.50  2.58134   69.99  1.02914  -83.44
1560.000000  2.04475  138.59  0.62223    1.93  0.47145 -122.75  0.64576   22.64
1580.000000  1.08257 -101.51  0.97150  -90.78  0.46355 -133.90  0.37459  -66.69
1600.000000  0.50198 -133.79  0.85922  -82.48  2.70799   32.46  0.55386  -87.64
1620.000000  0.44618  126.48  1.51927   15.27  0.85709  -16.07  0.45213  128.73
1640.000000  0.17254  169.61  1.02123   65.48  1.16928   79.91  0.72274  149.93
1660.000000  0.30500 -110.58  0.62800  -73.34 153.66955 -146.70  0.86378  -92.37
1680.000000  0.71910   94.80  2.39832 -136.53  0.66806 -146.55  0.63081   78.17
1700.000000  0.22720  113.47 123.41837   10.09 274.13772   50.36  0.22798  113.37
1720.000000  1.37613   35.38  0.62934  172.65  1.17202 -166.01  0.72568 -155.24
1740.000000  0.77073   88.94 17.03814   33.01  0.93965  100.83  0.27818  138.91
1760.000000  0.65546  -82.97  2.73590 -173.49  1.75362   19.36  0.54606  -79.28
1780.000000  2.44517   91.36  1.71002  -19.85 236.07162  -41.38  2.66541   57.90
1800.000000  1.37575  -63.54  1.02122  -82.19  5.27105  131.77  0.81339   61.05
1820.000000  0.47823   79.39  2.92458  -66.46  0.96497  141.46  0.31161   41.13
1840.000000  2.42042  -74.70 10.69477 -115.44  1.00992   -1.50  1.34102 -107.91
1860.000000  0.51874  110.68  0.85917   28.12  7.61322 -139.18  1.32863   74.41
1880.000000  1.01457  -60.67  1.70201 -169.00  2.98814   46.30  0.59235   31.32
1900.000000  3.71480   96.57  6.82749  127.66  3.26668  104.53  5.24628   62.67
1920.000000  0.69109 -120.02  3.85647   82.02  3.30115  170.03  0.56269 -101.06
1940.000000  0.22216  145.47  3.98591  158.87  2.34952   -7.15  0.27298  143.57
1960.000000  1.57969  112.66  7.26824   23.94  1.15172   56.08  1.44454  135.44
1980.000000  0.92774  -68.12  1.40629  173.60  2.13085    6.13  2.17638  -39.75
2000.000000  1.36633  139.02  1.35110 -112.92 282.98750  -33.04  0.89776  102.61
2020.000000  3.97785 -108.64 280.05359 -133.60 441.33033 -146.09  3.92437 -107.28
2040.000000  0.59637  109.52  1.91304   60.53  2.24684   87.89  1.15808  134.97
2060.000000  1.57582  -44.21  1.99501   10.89  2.25018  -23.00  2.06375  -74.26
2080.000000  0.54457  160.94  1.16519   78.79  3.45930 -153.29  1.63358   55.87
2100.000000  1.08984   77.46 397.29799  149.20 10.85299 -134.18  1.49406   86.82
2120.000000  0.55150  -47.12  4.87414    2.04  3.12508 -175.73  0.46737  -40.64
2140.000000  0.55437  -41.04  1.49303  105.51 424.23118  -83.17  0.86873  -70.36
2160.000000  0.90957   89.55 13.24517  -96.38  5.33153  114.41  1.27009   85.69
2180.000000  0.49982   72.84  2.16328   -0.58 15.27680   48.66  3.77261   87.68
2200.000000  0.76339  131.47  2.17330   10.70  6.16135  -44.54  0.66289   63.61
2220.000000  0.90610 -135.12  4.97522   -8.40  2.82533 -127.59  2.23735 -120.91
2240.000000  0.35096  -94.10  2.72097  170.25  3.42863   60.22  0.39506 -112.38
2260.000000  0.63883 -130.01  1.73905 -116.05  2.49068 -135.71  5.00114  133.01
2280.000000  0.71487  116.86  5.16562  149.84  4.42822  115.80  0.72591  117.84
2300.000000  0.22546 -106.81  3.70025  -42.87 447.00531    2.38  0.28603  -86.45
2320.000000  0.94763   69.64 20.27712 -137.75  2.00570  -87.22  1.80547   44.45
2340.000000  2.94641  102.00  4.67331  -75.17  8.22663  111.65  1.39543   46.49
2360.000000  2.42070   92.16  2.02742  147.61  9.65575  160.54  1.03242   65.32
2380.000000  0.93308   58.05  3.43616   77.95 15.19492  -67.69  1.25646   70.19
2400.000000  1.36849   81.85  5.22049   13.11 18.15018  -66.92  1.44488   58.31
2420.000000  1.48573   64.01  6.90608   28.27  6.73833  156.09  1.10240   64.09
2440.000000  0.18419  -74.87  4.40987  164.91  2.96376  165.81  0.14045 -103.00
2460.000000  1.25061  121.90  9.94881 -126.88 974.95317 -153.23  1.51124  123.57
2480.000000  0.37067 -136.72  3.01740  -19.52  4.23116 -179.66  0.22377 -128.51
2500.000000  0.17980 -141.49  2.25959  107.71 20.82228  161.15  0.39864  164.74
2520.000000  0.53592  144.32  2.65074 -162.35  5.82234  163.27  0.60020  131.87
2540.000000  0.27626  152.19 627.47959  -26.88  1.47285 -121.83  0.20898  161.33
2560.000000  3.21722 -159.59 17.29400    9.05  6.18786 -179.27  2.22294  172.67
2580.000000  0.51189   95.10  9.10870   82.08  1.45319   91.68  1.19840  -71.99
2600.000000  0.72695   59.95  2.59139  156.20  2.73285  124.91  0.58916   92.09
2620.000000  0.79351  132.19  1.89108 -151.91  1.60336 -179.88  0.97205  -69.19
2640.000000  0.89167   31.46 410.24890  -66.64  8.62800  157.19  0.83359   47.68
2660.000000  0.33808  -22.75  7.58611   82.30 15.12155 -134.78  0.47154  -23.11
2680.000000  0.42022   74.52  4.13551 -158.19  2.49058 -178.37  0.10795   12.07
2700.000000  5.95846  162.40  9.60776  -99.77  8.49146   88.15  0.76157   78.25
2720.000000  1.23214   61.10 480.39503  128.97  9.00509 -107.04  1.15193   67.97
2740.000000  0.73944  158.70  1.80803  -46.66  2.72495 -120.05  2.60368  147.79
2760.000000  1.24791  177.78 16.35096 -166.02  5.60001 -175.04  1.19577  179.70
2780.000000  1.06312  114.46  2.12461  -28.46 19.26853  -13.36  0.53956  127.36
2800.000000  0.92382  132.76  2.86886  151.34  3.38711  164.79  1.39287  128.29
2820.000000  0.39721 -171.20  1.92873  -45.89 15.03462  -20.25  0.37845  155.73
2840.000000  3.00948  -57.72  6.78180   82.97  6.03124   40.42  2.72655  -27.17
2860.000000  1.80044  117.91  4.61203 -113.84 46.86451   21.67  1.11676  130.61
2880.000000  0.38160   92.55  5.42050 -115.40  4.72918 -114.28  0.35962   87.24
2900.000000  1.12853   59.51 10.20081 -133.52 20.53884   52.28  1.10557   54.40
2920.000000  0.31867    5.74  3.09929  159.58  3.86883  104.98  0.38866  -26.99
2940.000000  0.79785    1.39  7.26639    2.31 11.41827 -164.01  0.82212    4.20
2960.000000  0.33017   35.42 10.55221  -41.62 801.54271  115.48  0.35613   40.49
2980.000000  1.29716   38.34  6.88369   -3.82  4.62567  -21.28  1.99679   99.50
3000.000000  1.75438  -73.57 15.64884 -100.12  4.05558  114.44  2.06551  -85.76
