# MHz S MA R 50
!   freq        S11              S21              S12              S22       
1000.000000  0.51468   68.53  2.12143    6.37  0.10363 -174.30  0.79395   67.77
1020.000000  0.01993   48.28  0.21461   -8.71  0.31127    0.69  0.06390  119.99
1040.000000  0.32292  101.59  0.71608 -101.27  0.08450 -178.73  0.26888   89.34
1060.000000  0.57527  -96.41 188.14051   -8.95 273.55914   -4.46  0.56839  -96.04
1080.000000  0.05653  156.24  2.47279  -72.34  0.18577  -99.92  0.07812  173.28
1100.000000  0.06173  141.06  0.85884  -37.76  0.05624 -156.22  0.05038 -130.03
1120.000000  0.80202  -95.19  2.10210 -153.29  0.78322 -126.16  1.65178  -93.92
1140.000000  1.51435   74.40  5.28395 -144.24  1.92777   17.68  0.92104  102.05
1160.000000  0.24737   82.89  0.50946  101.21  0.09772   89.31  0.20451   46.51
1180.000000  0.28921   98.72  0.23455  -41.47  2.33912   32.69  1.24104   87.68
1200.000000  1.33799   84.99  0.76836  177.63  0.27366  153.23  0.69147 -135.33
1220.000000  0.18169   38.02  0.38855   63.69  2.68355   49.81  0.43696   74.77
1240.000000  1.55571  -89.47  2.55159 -106.07 11.84725  -98.15  1.57823  -82.15
1260.000000  1.24923  -73.49  1.12651  -29.38  4.45839   36.99  0.82838 -106.27
1280.000000  0.49414  -69.52  0.32949   32.77  7.05938  -98.91  0.84140  -83.05
1300.000000  1.43175  -34.86  0.52473   26.82  1.82544  -68.35  3.02018  -65.16
1320.000000  1.80019  142.66  1.73742   85.60  1.90632 -103.68  2.31451   98.11
1340.000000  0.78681  118.26  0.74445  -34.03  1.03904 -107.30  1.17090  147.98
1360.000000  0.37562 -124.70  0.82046 -175.20  0.61944 -175.40  0.43343 -179.46
1380.000000  0.75083   96.89  2.08976  165.61  0.67554   48.25  1.61534   60.80
1400.000000  1.63095 -105.90  1.48677 -107.71  0.91437  -25.90  0.49022  -96.01
1420.000000  0.31582   85.48  1.06693  131.59  4.64925 -144.78  0.22424   90.41
1440.000000  0.52549   44.74  0.51606  174.04  0.75816   53.16  0.52442   65.53
1460.000000  0.44313   49.59  0.64457  -47.98  0.93048 -150.66  0.53630   83.78
1480.000000  0.27934  -67.26  1.84315   62.22  0.99462   23.64  0.15993  -54.97
1500.000000  1.22297  -96.41  4.89964   17.49  1.18392 -116.57  0.54671   -1.77
1520.000000  0.67582   64.74  0.94835   39.39  2.44458  117.59  0.61457   60.20
1540.000000  0.83182 -105.06  1.43111 -114.24  0.98350   73.36  0.48123  -68.79
1560.000000  1.04454   38.22  0.65978 -163.18  0.97677 -146.62  1.58368   43.57
1580.000000  0.68831  -29.40  0.36296  -61.94  0.63510 -149.27  2.05125 -161.01
1600.000000  0.80519 -127.80  1.09576 -168.87  1.90839  158.47  0.80883  -65.27
1620.000000  0.84471  100.72  3.89781   26.48  2.16843  -37.27  0.82445   74.45
1640.000000  1.51670  129.17  4.17646   71.96  1.49316 -118.69  1.18647   17.14
1660.000000  0.24782  -11.78  4.49487  -52.90  0.48793  -88.22  0.35928 -125.19
1680.000000  0.98370   91.23 153.93288  130.64  2.05775  -71.06  0.69393  110.69
1700.000000  0.27064   89.85  2.38686   51.21 249.62409   60.52  0.22637  113.17
1720.000000  9.44097   16.95  2.43330 -150.16  2.83384  132.39  5.04671   43.07
1740.000000  0.26581   74.88  1.42916 -155.13  1.44582 -150.47  0.98822  -71.31
1760.000000  1.08141  -24.79  1.57326   48.00  1.01208 -136.26  1.05008  -43.12
1780.000000  6.96930   56.85  5.11279   74.81  0.64121  -14.50  0.82384   62.42
1800.000000  0.53921   85.77  1.72710  107.79  0.71824 -124.83  0.57993 -177.18
1820.000000  0.37271  107.93  0.74365  124.93  0.81108  -93.79  0.25754   70.03
1840.000000  3.58005 -133.09  1.74216  -49.40  0.96391  -33.16  1.70831  152.14
1860.000000  1.54673   98.04  2.11674   46.63  1.01324    8.64  0.64876   79.37
1880.000000  0.50655  -79.87  0.96132  -45.01  1.14000  -31.58  0.87686 -134.82
1900.000000  1.05403   54.86  0.65376  118.88  2.45768   62.55  4.55937 -118.60
1920.000000  1.29687  178.92  0.57683  -77.11  0.80518  119.63  1.39619  166.36
1940.000000  0.31610  119.10 222.09111 -141.58  0.76055  -72.53  0.21206  178.82
1960.000000  0.24052   81.54  1.68149  -28.85  2.41030   -9.08  2.15292  140.08
1980.000000  0.25279   -6.84  0.69824  169.68 228.17143  143.71  1.19339 -102.84
2000.000000  1.19705   74.64  1.96922  -96.17  2.10936 -117.37  0.35252  115.88
2020.000000  1.62468  -69.42  2.46411  -77.34  1.63961  139.05  2.10322  -39.32
2040.000000  0.93026  117.45  2.36353  154.49  1.17665   77.31  1.81142   89.90
2060.000000  2.50034  -61.30 34.59544  -28.81 536.56121  -64.06  2.59717  -61.00
2080.000000  2.26492 -106.64  1.56759   66.05  1.61417   58.68 54.45236  125.61
2100.000000  1.00799    2.85  1.47733 -125.21  2.27196   -5.35  0.70839   41.99
2120.000000  0.89608  -58.02  7.17263   43.01  1.69815   10.78  0.52820  -59.35
2140.000000  0.86808  -70.59 330.28728  -49.50  1.87807   46.60  0.69549  -52.90
2160.000000  0.40954  152.32  2.97653  -89.49  2.00061  167.77  1.33679   29.11
2180.000000 60.97533  129.71  2.46151   31.31 14.98050 -134.66  2.77628   87.30
2200.000000  0.60157  128.54  2.32277  150.69  1.12422  159.56  1.77453  -19.11
2220.000000  1.76928  113.83  2.02051   27.74  5.46387   93.99  1.65757 -133.92
2240.000000  0.30716 -122.96 447.66804  -86.23  2.03856   72.07  0.13624 -104.30
2260.000000  1.49205  154.00  2.05551  129.20  5.74680  -52.29  1.99831 -152.57
2280.000000  1.05686   74.61  2.26739  104.50 12.84460  -51.66  0.71585  109.26
2300.000000  0.28687  -87.86 27.43638  142.90  3.58578   93.02  0.32251  -96.55
2320.000000  0.99792   25.20  3.73878  101.46 20.42428  -60.77  0.96428   77.89
2340.000000  0.74110  104.23  1.83337 -100.27  1.52472 -149.72  0.28277   41.66
2360.000000  0.64851   35.20  2.85827  -18.91  8.68096 -179.01  1.13228   81.79
2380.000000  0.80259   51.96  2.27533  -73.12 18.40129   58.28  1.19589   62.52
2400.000000  1.54987   57.92 14.91900  -32.76  5.41009   -7.33  1.54631   12.67
2420.000000  1.63781   40.49  3.70149   35.87  3.86535   17.63  1.41229   -2.47
2440.000000  0.14716  -96.48  3.15329  170.46 15.98030  -45.70  0.14635  -91.42
2460.000000  1.15699  127.34  4.66157  -62.11  8.31367  -81.78  1.34710  126.21
2480.000000  1.38054 -167.61  2.04904   14.78 19.46524   25.11  0.31073 -148.73
2500.000000  0.28103 -167.78  1.96866  -29.14 12.79433 -104.26  0.45489  171.87
2520.000000  0.66077  143.67 11.64347   -4.28  2.26631  140.60  0.49322  149.24
2540.000000  0.15789  159.48  2.30426 -108.27  2.97417 -126.35  0.25024 -172.87
2560.000000  1.65292  151.10  7.80729  129.95 12.76180    4.41  1.52950 -154.91
2580.000000  0.72423  102.05  8.33030  106.52  3.27968   90.76  0.19886 -164.05
2600.000000  0.14307  144.17  1.82930  175.16  2.38583  171.14  0.49952  105.44
2620.000000 10.80720   81.57  6.68494   24.01  1.54630  160.03  0.32581   26.95
2640.000000  0.72872   91.02  2.90502 -150.68  1.40328  -20.91  0.11491  -55.39
2660.000000  0.24818   -4.02  2.04644  -87.20  4.50389 -153.09  0.78467  -27.94
2680.000000  0.04014  -98.49  2.11848  168.17  1.57690  154.75  0.08352  174.77
2700.000000  1.15168   85.94 526.55846    7.50  3.74188  112.57  3.01317  131.25
2720.000000  0.54711 -164.46  2.69233 -117.78  2.07434 -159.99  1.37851   31.36
2740.000000  0.70005   28.77  2.60239  -78.28  3.47264  -42.98  1.07370   31.72
2760.000000  1.31493  170.33  1.82018   45.47 27.06396   14.26  1.23952  178.99
2780.000000  0.51844   -1.41  1.53149  -56.94  2.11395  -27.11  0.53903  102.80
2800.000000  1.22699  147.33  9.23792  -64.01  9.02793  -10.14  2.84709  104.88
2820.000000  0.32627  173.08  4.39386  -55.81  3.55676  153.05  0.73818  172.66
2840.000000  4.05226  -49.93 18.65508 -144.60 28.36159 -123.37  4.34039  -46.74
2860.000000  1.08186  125.42 19.61617   35.21  9.29412   72.50  1.20869  117.27
2880.000000  0.19457   77.39  4.65077   68.67 38.23466 -118.88  0.25958   57.20
2900.000000  1.30685   35.20  1.40504 -145.94  3.31713 -137.57  0.75160   58.11
2920.000000  0.41671  -10.64  4.31230  139.52  8.61884  -15.51  0.40394  -31.67
2940.000000  0.81041   -0.08  4.08799   27.81  7.92432  -23.20  0.94660   -5.76
2960.000000  0.52154   46.25  7.17648 -165.70  4.50973  162.70  0.26890   65.74
2980.000000  2.55055   84.14  3.27072  -19.45 11.48599  167.11  1.38503   91.35
3000.000000  0.87056  -50.04  3.80468  -65.40 19.28808   77.68  2.88478  -88.41
