# MHz S MA R 50
!   freq        S11              S21              S12              S22       
1000.000000  0.42271   79.49  1.49403    8.05  0.75784    3.32  0.64305   82.83
1020.000000  0.03268  178.99  0.61547  172.24  0.09621  167.90  0.01528   98.13
1040.000000  0.29338   98.51 82.35130  155.09  0.65099   63.48  0.24717   66.56
1060.000000  0.58001 -126.03  0.05870   -2.82  0.05595   27.71  0.79773  -46.61
1080.000000  0.03045   91.75  0.26952  -75.90  0.72767  117.07  0.09802 -171.82
1100.000000  0.09470  140.12  2.03486  159.04  0.10741 -105.32  0.05431  152.93
1120.000000  0.91281  -96.41 28.55231 -174.78  1.84435   33.67  1.69670  -75.57
1140.000000  1.66857   92.01  1.82475   43.22  0.44625  109.21  0.82135   86.53
1160.000000  0.34055   78.91  2.26678   25.76  0.59928   28.87  0.25756   68.31
1180.000000  0.36737  -18.97  0.20684  -36.60  0.58402 -101.63  1.19723   86.56
1200.000000  0.98342  119.51  0.15687 -154.46 89.53008   53.34  1.15977   85.83
1220.000000  0.33188   66.50  3.15928   61.51 122.18130  -39.73  0.32836   68.49
1240.000000  2.32603 -152.13  0.22925   43.11 136.24251  -22.66  2.09384  -79.31
1260.000000  0.79640  -78.68  0.92869  -78.14  0.67746 -129.37  0.37658  -30.19
1280.000000  0.86166  -89.09  3.74936 -142.56  2.15614  134.58  0.92685  -89.82
1300.000000  1.39298  -71.26  0.40828  126.84 199.89694 -108.75  2.78589  -76.76
1320.000000  1.06957   77.29  2.36377   93.31  0.61010   52.05  2.01204  -34.61
1340.000000  0.21397  132.42  0.24638  -26.54  0.57573  -31.55  0.18433  122.89
1360.000000  0.26492 -113.46  9.57492  -63.63  1.78043  -50.04  0.20153 -120.28
1380.000000  0.84089   82.58  0.61021  149.04  0.42958   66.48  0.82225    7.69
1400.000000  1.88914  -94.22  0.92609 -154.73  0.48927 -111.63  0.96892 -139.51
1420.000000  0.19981  109.28  1.42476   69.85  2.93980   73.61  0.20316   89.91
1440.000000  1.45452   78.32  1.11720  172.69  1.05995 -174.53  1.06205  110.75
1460.000000  0.80251   50.61  1.84115 -116.90  1.57020 -101.11  0.63064   83.50
1480.000000  0.44458  -41.02  1.00400  150.79  2.29950   15.01  0.19969  -76.82
1500.000000  1.43077  -94.04  5.68183   63.37  0.91894  -24.96  1.13330  -67.65
1520.000000  1.22369   82.51  1.16653   56.36  0.61937  118.66  0.54491   41.15
1540.000000  0.54265  -82.09  2.24137   57.47  0.82312   62.79  0.16366 -138.62
1560.000000  1.50548   73.54 364.71475 -164.39  2.23373 -163.59  1.73925   61.74
1580.000000  0.74781  -88.51  2.13860  133.43  1.08663 -150.94  2.64795  -65.28
1600.000000  0.74475 -118.65  2.58842 -106.14  4.11617   96.84  0.48290 -105.13
1620.000000  0.86466  140.98  0.72189  -73.30 160.22325  -94.12  1.11926   92.27
1640.000000  1.67160  115.19  3.01050  -65.44  4.21278 -170.90  1.00496  127.20
1660.000000  1.02875 -114.80  6.29750   17.90 20.40603 -116.99  0.82773  -93.18
1680.000000  1.35323   14.89  2.11396 -175.61  2.33025   53.53  2.04962   67.09
1700.000000  0.08325  119.69  0.64551   77.44  5.43280  -54.93  0.24157  113.84
1720.000000  1.12674  -79.41  2.97636  130.91  2.71956 -175.64  2.97265 -103.87
1740.000000  1.22810  118.25  0.89661  170.29  9.38171   42.29  0.66520   91.44
1760.000000  0.55563  -87.72  1.03794  146.91  1.06387 -155.01  1.64831 -176.10
1780.000000  2.69267   56.80 189.20177 -101.49  5.14215   42.29  3.09277   67.08
1800.000000  0.88263  116.40  1.10615   77.08  0.80687 -139.62  0.51942 -172.61
1820.000000  0.37495   26.11  0.82983   83.30  3.68638  178.39  0.60300   64.18
1840.000000  1.31985  -49.09  4.24227  140.60  9.10488 -114.42  1.80093  -56.01
1860.000000  1.94902 -133.61  1.41065   33.08  0.57909  -27.58  0.56382   56.61
1880.000000  0.74109 -136.04  3.21246   -0.51 240.51784 -145.29  0.90874  -96.46
1900.000000  2.36929   94.23  6.81408  128.23  1.05526   60.47  0.24111 -179.08
1920.000000  0.46775 -117.26  3.15794 -127.95  0.61504  -91.12  0.85370  105.18
1940.000000  0.35021  144.58  2.56187  -95.29 215.64734 -147.17  0.31746  119.25
1960.000000  1.52092 -136.12  1.20630 -146.96  1.20244   63.14  1.42926  164.13
1980.000000  1.19704 -116.45  1.92084   40.37  1.25485 -143.56  1.04466  -77.44
2000.000000  0.68480  139.52  0.92688   88.24  3.37922 -136.42  0.98768   37.19
2020.000000  2.98379  132.54  2.00210   85.25  5.07790   -9.57  2.14272  -94.26
2040.000000  0.62539   14.76  1.86702  -55.40  4.36971  105.05  0.67215   58.39
2060.000000  2.56942  -74.22  9.19859  133.77  4.60891  129.31  5.89232 -110.87
2080.000000  2.61250   -5.29  2.12763 -135.46  2.29092   70.53  2.27497   53.86
2100.000000  0.60244  105.61  1.07416   34.17  1.08205  169.78  0.74125   52.33
2120.000000  0.77877  -83.05  2.51142  167.36  4.96263    1.77  1.01895  -58.50
2140.000000  0.86858  -70.53 287.06418  -36.13  1.87589   96.24  0.75890  -21.55
2160.000000  1.46828   77.85  3.70791  135.11  3.07156  -30.62  0.64936   77.06
2180.000000  3.36567   83.24 392.06896  -88.57  2.48676  -10.74  1.54856  174.68
2200.000000  0.95766   95.84 48.48822  146.86  1.41268  -25.58  0.59053   53.79
2220.000000  1.13298 -128.76  5.20536  -87.11 11.51931   49.90  1.16124 -116.36
2240.000000  0.48218 -114.17  1.48044   26.34  1.45615 -151.42  0.78560  -73.07
2260.000000  6.70569  158.38  2.65813  -58.42  4.57585   76.99  0.99728  -77.16
2280.000000  0.86839  101.31  8.75037  170.91  2.99013  152.64  0.63585  108.64
2300.000000  0.27600  -79.29  8.78292  -40.11  1.93184  -31.35  0.23887  -75.16
2320.000000  0.91908   68.71  7.13261 -105.04  1.52469   78.76  0.83341   90.38
2340.000000  1.18672   69.82 14.90442   84.68  6.18717 -116.48  0.34156  -61.49
2360.000000  2.41272  103.86  2.38954  164.69  5.00485  179.02  0.68181   79.54
2380.000000  2.47654   90.92  4.03509  108.61  2.61046 -111.28  3.54484   50.95
2400.000000  1.56740   77.02  5.38610  -51.57  1.75036  -13.69  0.73521   56.44
2420.000000  1.00195   57.05  3.95016 -122.98  1.96017 -161.10  0.71492   73.38
2440.000000  0.10521  -64.80  2.39833  158.98  8.02139  150.50  0.15935  -78.71
2460.000000  1.23796  118.86  8.05082   92.03  2.52662  126.41  1.66586   78.56
2480.000000  0.32180 -125.68 20.52750   31.44 14.30186 -139.38  0.28404 -117.94
2500.000000  0.49711  141.80  2.34823  -91.52  2.49897  -64.13  0.07124   48.72
2520.000000  0.53231  138.26  3.27106  144.61  2.01208  155.90  0.47830  122.90
2540.000000  0.27927  150.18 23.51276   54.18  2.14002 -133.10  0.32265 -164.66
2560.000000  1.24733 -130.05  2.07501  -26.36 99.34526 -153.09  2.84397 -174.56
2580.000000  0.44715  126.27  2.71290   68.92  1.78494  105.57  0.07375   76.84
2600.000000  0.29322  108.39  2.20402 -171.32  4.15748  118.13  0.62180   85.24
2620.000000  1.04372   80.62  1.71762 -139.94 463.53188   94.70  3.69305   82.47
2640.000000  0.94864    4.22  1.54008   48.35  3.43301   49.20  0.66097   16.97
2660.000000  0.50449  -20.21  4.19518 -146.94  7.93570 -141.21  0.42392  -20.41
2680.000000  0.14338   32.67  3.07756  -32.00 14.86623   -2.97  0.20536   16.63
2700.000000  1.14893   86.13 479.06396   30.46  3.27654   77.42  2.18927  145.59
2720.000000  1.01577   64.35 10.38657 -151.64  1.74788 -166.11  6.84442  129.59
2740.000000  2.10834   68.64  5.50764  -99.37 504.73517  178.92  5.55377   50.91
2760.000000  1.29204  172.18  3.29302   -4.74  8.82806 -172.47  1.18439 -179.10
2780.000000  0.50514  135.71  8.44813  150.48  1.27817  -34.15  0.38707  102.69
2800.000000  0.92841  140.96  2.33783  139.62  5.14084  104.49  1.19218  164.62
2820.000000  0.41276  178.82  2.00919  154.28  9.08463  -62.45  0.40338  154.42
2840.000000  6.05889   38.77  4.42123   51.65  1.97225   78.53  2.59644   39.18
2860.000000  1.15066  122.90  9.46141 -139.89  3.15818 -106.89  0.71413  111.85
2880.000000  0.24673   55.15 21.74974   40.42  2.37952  -97.17  0.68193  131.15
2900.000000  0.99219   51.20  3.72126   12.50  6.65374 -141.34  0.71672   34.15
2920.000000  0.77778  -21.59 11.62431  152.86  2.77608  114.01  0.39652  -48.11
2940.000000  0.79793   -3.38  4.74402   23.62  5.80856   20.62  0.80764   -0.08
2960.000000  0.28921   37.22  6.41306  172.39 25.21059 -164.64  0.34230   42.38
2980.000000  1.44110   94.49  7.69035  118.80  2.34883   -9.59  1.23396  107.96
3000.000000  2.05409  -63.53  7.69598  -90.45 104.44875  116.84  2.49754  -73.31
