# MHz S MA R 50
!   freq        S11              S21              S12              S22       
1000.000000  0.57984   84.45 250.74459  -78.89  0.82309    8.54  0.33313  129.11
1020.000000  0.02160   87.21  0.90524  174.18  0.63074 -172.22  0.05422   71.02
1040.000000  0.35659   99.73  1.10836   51.97 11.11697  -80.56  0.29402   98.40
1060.000000  0.37526 -120.48  0.45444  -83.27  0.86006  -82.72  0.52452 -108.76
1080.000000  0.12699 -166.83  0.46487  120.67  0.61752   83.44  0.07795  148.90
1100.000000  0.08555  144.28  0.78072 -157.49  0.49085  -38.05  0.06643  119.92
1120.000000  0.79940 -102.44  6.18589 -145.27 184.22430  138.70  0.90325  -96.87
1140.000000  0.71785   65.46  0.30650  154.35  0.25451   89.62  0.69836  111.00
1160.000000  0.27391  108.66  0.92026   29.71  1.09505 -175.68  0.10079   75.60
1180.000000  0.89366   54.52  0.41541  -53.94  0.40291   54.33  0.73723   67.56
1200.000000  0.90611   90.83  4.07044  -75.48  8.73501  123.87  1.24761   90.15
1220.000000  0.31891   93.96  1.16862   70.35  5.00421 -136.13  0.30764   59.74
1240.000000  2.55791  -51.05  0.65361   49.61  0.69107  -68.04  0.96776   15.14
1260.000000  0.71682  -86.97  4.34592  -31.24  7.93865 -167.58  0.68767  -89.35
1280.000000  0.78763  -66.76  1.10162   41.79  0.90338 -133.98  0.58247 -101.21
1300.000000  2.80824  -76.66 116.90267  113.29  0.18206 -101.15  1.79027  152.21
1320.000000  6.97356  150.28  0.51014   56.06 71.59701   79.91  1.53929   98.22
1340.000000  0.43200  102.57 212.37440  -18.03  0.64159  159.03  0.34292  105.76
1360.000000  0.25659 -112.89 321.24469   50.72  2.68291  -43.58  0.23066  -93.71
1380.000000  0.85074  116.48  3.06914   -0.80  0.48477  -65.56  0.70675  136.93
1400.000000  5.77554  169.19  0.26776  -95.57  7.26205   28.94  0.95172 -107.23
1420.000000  0.17464   93.33  1.11418  -60.36  4.79612  156.41  0.15674   90.12
1440.000000  0.80095  105.81  1.57424  113.74 264.78740   73.22  0.93524   86.72
1460.000000  0.72759  120.26  1.13695  155.42  2.37025   24.27  0.21511   33.72
1480.000000  0.27191  -56.68  0.42934   66.72  1.16070   81.60  0.32923  -67.50
1500.000000  0.98960  -85.37  4.99930   66.42  8.47342   70.29  1.24069  -88.48
1520.000000  0.38749   66.83  1.04780  104.20  3.79838   36.98  0.97657   74.53
1540.000000  0.43067 -108.31  4.69594 -179.18  1.86742  108.99  0.72422  -90.28
1560.000000  2.23574  -10.77  0.64538   18.99  1.97088 -148.34  1.81296   64.94
1580.000000  1.06307  -52.56  1.07293  -35.76  1.18632  -20.64  0.55146  -42.39
1600.000000  0.31666 -115.15  0.53669  168.59  0.74105 -124.03  0.33752 -157.20
1620.000000  2.24722   81.22  2.36877  176.32  1.41311  -82.13  0.89584  131.67
1640.000000  1.01426  127.39  2.29644  117.05  2.45848 -108.21  1.03790   94.13
1660.000000  0.32969  -87.85  1.14294 -110.04  2.16662   64.63  1.43571  -65.06
1680.000000  0.82089  102.73  2.82586   25.95  3.99849  -65.97  0.80783  102.20
1700.000000  0.20123  102.38  1.80710  -92.96  1.70914  144.39  0.48726 -144.57
1720.000000  0.16576 -104.97  0.64376 -149.12  9.21839  -73.37  3.64860 -123.65
1740.000000  0.96303  123.22  1.36879  139.34  0.66681  166.82  1.60998   -4.15
1760.000000  0.53124 -138.27  0.85055 -104.75  2.78346   31.80  0.71073  -52.34
1780.000000  0.63419   43.48  0.68805   61.18  3.87584  153.55  1.62926   72.91
1800.000000  0.55101   76.07  1.36286  108.61  5.15100  130.69  0.34167  162.98
1820.000000  0.33955   56.59  1.12068  -26.27  2.00602   50.47  0.22749  -87.57
1840.000000  4.56981  -84.69  2.93565    8.31  1.31292 -158.95  0.95191  -38.67
1860.000000  0.71775   89.66  1.38186 -150.92  1.08266  -33.32  1.47211  -66.90
1880.000000  0.65966 -121.74  0.88499  -36.39  0.90743   18.14  0.59757 -143.61
1900.000000  1.98452   68.37  1.14426   96.32  3.56047  -45.87  3.76118  136.94
1920.000000  0.27823  171.89  0.97003 -120.75  0.89743  -90.42  0.22352 -124.89
1940.000000  0.27433  174.01  0.79419  -90.62  4.88724  -94.25  0.31300  144.82
1960.000000  0.66495  104.74  2.32564 -108.04  0.63509   46.69  0.66161   78.31
1980.000000  0.82734 -104.19  1.32792   14.70  1.47058  175.68  0.91656  -75.62
2000.000000  0.86501   91.68  4.42305  -70.42 213.95631  -18.59  0.89318  102.44
2020.000000  1.64988 -111.88  5.82100 -178.84  2.28144  -21.94  2.29605 -109.92
2040.000000  0.89391   81.02 276.04358   38.34  2.98140  113.44  0.78321   87.00
2060.000000  0.91538  -24.72  3.37574   96.22  4.56934  -51.69  1.61856  -56.96
2080.000000  1.65511   74.90  2.31252  111.03  1.91083 -117.64  3.83782   -8.50
2100.000000  0.91822   79.80  4.77494    6.93  3.04371  159.23  2.64378   57.39
2120.000000  1.04118  -59.50  3.35034  -47.73  2.05852  -20.19  0.61255  -92.98
2140.000000  1.08581  -12.21  1.17556   74.72  3.22559  -84.20  0.65000  -75.34
2160.000000  0.65458   86.39  2.46986  162.79  2.24632  157.62  2.84131  -40.29
2180.000000  0.90883   24.88  2.97809   10.64  3.17761 -152.27  2.21920  128.01
2200.000000  0.44607   55.81  1.63300  -18.27  1.67724 -162.50  1.19120 -122.43
2220.000000  2.20098  -92.19  2.27423 -137.00 630.34822  -91.48  1.17873 -120.53
2240.000000  0.36699 -121.83  3.52383   47.45  2.36618 -140.77  0.54080  -89.20
2260.000000  2.76905 -145.56 17.07700   47.15 14.54207   49.27  2.39430 -152.62
2280.000000  0.53074  133.25  1.90925  -43.15  2.64685  -24.29  1.85706   69.28
2300.000000  0.30792 -116.48  3.73684  -46.43 14.92977  168.94  0.29658  -83.80
2320.000000  0.25048  116.16  8.87700 -111.75 35.48366   64.71  1.01756   69.98
2340.000000  0.99839   78.45 14.13263 -116.58  1.51023  -83.78  3.67360   17.08
2360.000000  1.15116   81.02  9.58327  -25.70  4.11011  -26.63  0.48134   49.58
2380.000000  0.96807   48.80  3.89830  -63.81  6.78712  125.94  0.53828   71.46
2400.000000  1.51020   54.66 611.33425  -97.66 12.50057    3.87  1.61083   57.33
2420.000000  0.88469   60.82  4.18937   43.73  5.29239 -119.43  1.77506   66.82
2440.000000  0.34068 -114.91  1.69525  115.29  4.05859  152.89  0.08961  -72.90
2460.000000  2.69596   67.37  2.77941 -101.12  8.11444   81.04  1.03685  114.22
2480.000000  0.30519 -124.08 17.68937   15.25 17.99215   17.26  0.31139 -122.82
2500.000000  0.28553  178.83  1.74054  -59.80 16.23033  -44.04  0.36586  163.22
2520.000000  0.56391  137.40  6.55383  142.56  5.77160  -10.27  0.74075  127.75
2540.000000  0.48952  138.46  5.87602   46.59  1.95576 -125.61  0.05750  114.16
2560.000000  1.99744  171.60  3.52450  138.73  4.08389  179.59  2.36862 -144.43
2580.000000  0.09731   90.34  2.74347  134.99  4.10546  106.09  0.28717   86.64
2600.000000  0.77585   76.81 15.19352   15.27  3.34312  130.80  0.73582  112.18
2620.000000  0.16122 -170.91  1.68022 -118.74 415.23408  107.32  3.62331   80.88
2640.000000  0.91783   37.90  6.99352 -162.63  3.45479 -164.79  0.78531   38.10
2660.000000  1.59683  -74.91  3.63585 -122.16 17.48212  -83.74  0.36155  -15.15
2680.000000  0.13655  -64.99  1.65226 -156.72 472.23697   97.62  0.20731    4.36
2700.000000  1.15138   86.09 496.48852   17.88  8.02112  138.20  1.07808   61.91
2720.000000  1.18226  152.58  1.35167 -118.86  3.91051 -126.82  1.49728   28.06
2740.000000 15.17194  130.24  7.41322 -123.73  4.00287  -93.72  2.09017   74.51
2760.000000  1.22867  176.67 775.09549 -122.91  2.48177 -123.52  1.02471 -179.10
2780.000000  0.40442   92.21  4.23178   -4.61 18.61983  -74.95  0.52245  121.21
2800.000000  1.16792  163.91  3.14504  150.39 12.99239  108.30  1.28309  137.91
2820.000000  0.58469  167.90  1.99930  -35.09  8.72875  -53.83  0.29090  163.89
2840.000000  2.27319  -49.11  5.73671   92.14  6.02661   40.49  2.33245  -71.16
2860.000000  1.08558  130.24 629.15222  122.42 18.02790 -128.80  1.21895  117.99
2880.000000  0.21662   72.33 12.48367  113.83  3.91241 -123.37  0.21275   51.76
2900.000000  0.76420   38.00  9.93750 -147.74 23.47417 -115.71  1.08057   55.38
2920.000000  0.66692  -33.96  2.21564  -64.78  5.38334  140.21  0.40309  -29.92
2940.000000  0.80968    5.02  9.09774  167.19 21.84681    6.44  0.80923    2.91
2960.000000  0.37559   52.56  4.04581 -168.47 22.84252  -11.32  0.36454   38.99
2980.000000  1.29417   99.64 11.85269  174.20 11.46616  156.18  1.35137   90.83
3000.000000  2.71439  -78.37 12.08082   99.48 16.68559  104.39  2.38297  -79.08
