# MHz S MA R 50
!   freq        S11              S21              S12              S22       
1000.000000  0.52629   65.98  1.12311    5.91  0.29259    8.68  0.16438   19.05
1020.000000  0.02661  112.17  1.53400   -4.14  0.06883  168.02  0.01609   82.77
1040.000000  0.13717    6.86  0.23766   43.70  0.07536   45.57  0.25285  -14.51
1060.000000  0.60441  -66.64  1.27438  -88.42  0.21743  -56.80  0.77346 -124.92
1080.000000  0.11159  171.64  1.20157  -79.83  1.14990  137.20  0.08805  163.33
1100.000000  0.04223 -171.78  0.85737  -34.55  6.72943  154.38  0.08261  146.34
1120.000000  0.96871   52.76  0.76442 -135.64  0.61243 -133.07  1.01497  -40.25
1140.000000  0.55922   99.51  1.97529   42.12  0.30039  162.66  0.63418   90.67
1160.000000  0.21970  109.96  0.71935 -178.33  0.29216   72.22  0.24783   64.79
1180.000000  0.60924   48.15  0.40485 -150.38  6.45850  173.58  1.00059   81.03
1200.000000  1.98237   37.19  0.19223 -121.06  0.50715  179.24  1.40898   46.17
1220.000000  0.21636  -66.23  0.38343   49.25 113.74114  -30.51  0.32595   68.81
1240.000000 11.53694  -72.06  0.60693  -50.50  1.15201   80.34  0.74192  107.30
1260.000000  0.71649  -85.92  3.81570   60.45  0.83025   13.86  2.71986  114.60
1280.000000  0.83925  -63.85  0.89232  -89.40  0.38487   30.06  0.42118  -96.89
1300.000000  9.30662  176.62  1.23080  -24.33  0.50709 -149.41  0.79828 -112.84
1320.000000  1.97293   91.40  5.14356  -57.12  1.37378  134.08  1.31203   92.20
1340.000000  0.16470  109.29  0.56144 -177.46  0.63238  -46.24  0.31486  126.07
1360.000000  0.37612 -139.32  0.60293 -131.58  0.19693 -126.13  0.09891 -128.68
1380.000000  0.46068   70.99  0.44554  155.81  3.34737  179.39  1.08953  102.54
1400.000000  1.20505 -108.37  2.12722  166.17  0.89143  -93.41  0.86105  -78.94
1420.000000  0.10476    9.46  0.41770   44.95  1.86975  123.35  0.18418   86.64
1440.000000  0.49057 -163.55  1.99559   -8.79  3.40313  -66.89  1.00947   80.35
1460.000000  1.05878   40.04  0.47153  -36.13  1.69886  114.37  0.92086   78.28
1480.000000  0.31229  -55.13  1.26360   39.75  0.62666  139.68  0.15810  -39.93
1500.000000  2.67696 -118.92  1.18462  179.29  0.97725    2.29  0.53862 -107.91
1520.000000  1.24321   -4.44  1.03112  -57.97  0.79073   89.05  0.79962   65.83
1540.000000  0.30431  -64.25  0.63165   78.60  0.39131  137.40  0.99066   63.42
1560.000000  1.91817  146.47  0.58936  -93.22  0.98959   38.52  3.03097  102.09
1580.000000  0.61228  -92.19  0.65160  -93.16  0.53219 -131.46  0.35888 -139.90
1600.000000  0.73622  -57.74  0.83216   21.56  0.35671   49.24  0.21085  -84.10
1620.000000  1.96130   89.27  1.38815  -30.85  0.99825  -73.69  1.16074  -69.63
1640.000000  0.24231   43.80  0.43430  128.14  0.84978   81.33  0.84136  173.10
1660.000000  0.60634  -98.15  1.95120  -13.23  0.78268   -8.16  0.27808  -88.53
1680.000000  0.89728   90.55  7.29575  -61.64 195.45813  117.31  0.98987   91.21
1700.000000  0.11102   94.32  0.76526  122.36  0.54340   87.92  0.05948  145.98
1720.000000  1.78915   74.45  1.77615  116.25 130.80036  116.06  8.98184  -98.32
1740.000000  0.33953  134.46  0.38635  137.32  2.41686 -171.23  1.05132  139.48
1760.000000  0.56394  -72.35  0.75196   20.52  5.23631  135.56  1.68764  -60.63
1780.000000  1.14579  108.55  0.68613  -18.03  0.90485   23.91  1.33187    8.17
1800.000000  0.90751   87.70  4.99931  128.53 163.89804  146.28  0.96452   69.33
1820.000000  0.29644   37.19  2.94976  -59.94  3.25144  139.33  0.42448   52.80
1840.000000  1.36150  -32.70  2.56673  -33.38  7.10874  -27.94  2.34325  -38.11
1860.000000  1.08137   66.77  1.59143  170.57  1.03899   56.57  1.22133 -102.23
1880.000000  0.91462  -96.45 206.37086  -91.82  1.05353   28.44  0.69784 -124.98
1900.000000  2.73288   49.61  2.59127  -23.39  6.70670  -56.73  2.55313  103.76
1920.000000  0.87791 -115.71 19.17263   93.68  1.72248  -76.55  1.13921 -134.74
1940.000000  0.24354  126.14  1.77847  -37.82  4.14748  -82.73  0.34124  123.62
1960.000000  0.76639   58.30  0.89125   55.27  2.72485 -171.43  1.04343  116.31
1980.000000  0.87712  -99.84  4.61148    1.06  2.46356   74.90  0.58758 -126.51
2000.000000  0.85587  105.06  8.26589   59.33  4.88121  113.97  0.82449  110.79
2020.000000  1.71800  -49.68  2.56233 -103.00 354.59193 -139.85  3.91823 -106.97
2040.000000  1.47137  119.80  2.14043  106.32  2.19241  -70.92  1.14943  103.02
2060.000000  2.12814 -130.76  1.50088  -38.62  8.30971 -156.67  1.04861  -82.56
2080.000000  3.40745   39.32 301.70386   -4.80  1.71762   47.13  1.11869   51.41
2100.000000  0.98747   82.77  5.04733   -0.60  2.33980   23.89  0.80400   62.96
2120.000000  1.51337 -145.83  1.69544   17.58  1.15908  -22.55  0.39223  -93.28
2140.000000  0.85978  -70.09 83.39875  -85.43  3.30342   15.13  0.38108  -78.11
2160.000000  1.12995   78.39  3.67642   99.83  1.10960  102.09  1.44210   68.45
2180.000000  3.30962   83.13 353.99315  -42.93  5.70206   17.96 12.80186  -69.15
2200.000000  0.79573   99.75  6.30332  -72.94  6.87148  126.34  1.18476   63.48
2220.000000  1.25272 -118.35 11.78507 -110.02  2.87878 -140.73  0.71448 -134.22
2240.000000  0.51217 -116.92  1.66447    1.32  7.24169   63.13  0.27128 -115.34
2260.000000  5.44701   66.62  3.34158   58.22  2.70997  -54.81  1.90431  161.76
2280.000000  0.88895  128.86  2.30764  -29.87  2.04478  151.23  0.80243  155.09
2300.000000  0.27140  -88.76 18.22447  -27.52  5.34021  -60.76  0.21561  -84.10
2320.000000  1.33179   95.05  6.81329   75.59  1.21520   42.11  0.50088   85.45
2340.000000  1.16300  156.98  3.50076 -158.82 41.41989 -166.20  1.04162   77.05
2360.000000  0.73079   67.06 11.76712   15.38  3.19079  -54.01  2.54559  159.04
2380.000000  0.82331  121.47  3.94473  119.18 37.24180   54.95  1.05886   73.60
2400.000000  1.15586   48.76  4.51292  -78.24  3.75590  112.62  1.08017   66.97
2420.000000  1.01746   49.95  4.49467  165.75  4.45837   61.77  1.72566   44.36
2440.000000  0.05116  -65.05  1.63698  154.79  3.16203  170.70  0.15942  -99.90
2460.000000  1.73013  105.34  4.02439  126.51  4.84041 -121.91  1.40079  134.30
2480.000000  0.29260 -122.07 162.00303 -171.49  2.53337  156.96  0.89431 -142.03
2500.000000  0.42842  157.54  4.72680  147.01  2.42372  -81.00  0.28319  151.72
2520.000000  0.73030  135.73 11.95030   11.59  8.08945  152.53  0.51490  137.92
2540.000000  0.19682  145.28  1.17741   44.85  2.25731   21.74  0.71576   71.12
2560.000000  1.42486 -153.42  6.53226    9.19 17.14211  -32.84  1.97896  170.46
2580.000000  0.34874   70.22  1.79132  -81.17 12.77772  -55.40  0.44492   81.18
2600.000000  0.10437  134.31  4.48780  -49.88 12.68981  -30.22  0.90421   84.92
2620.000000  4.81644  -20.60  4.66770 -112.00 497.59511  148.42  3.67087   80.84
2640.000000  0.96113   26.02  6.90297   11.50  3.09212  -12.53  0.78723   86.67
2660.000000  0.39301  -24.14 617.63043  112.32  0.93591 -133.45  0.17120  -49.86
2680.000000  0.21343   -1.59 14.72836  169.29  7.43523  177.74  0.23941    9.36
2700.000000  0.85926   92.30  8.48842   88.14  2.12470  144.70  5.36262  -92.46
2720.000000  0.62479  125.80  3.04832    9.97  1.90379 -133.02  0.40952    6.94
2740.000000  5.61496   50.39 549.84711 -169.84  2.60326  -77.15  0.47418  137.89
2760.000000  1.18551  177.48  8.43800 -162.07 15.71779 -137.89  1.25241  178.26
2780.000000  0.45848  130.22 16.45857  142.79 19.05901  107.58  0.56330  120.11
2800.000000  1.19648  142.95 33.71664  -52.61  3.09489  -73.27  0.78069  124.20
2820.000000  0.36022  168.80  6.95721  100.54 17.50117  -47.80  0.31935  154.50
2840.000000  4.13208  -49.83 22.80290  -95.96  2.43709   28.35  1.37162  -32.70
2860.000000  0.58450  146.75  6.58381   34.48  4.49470 -124.95  1.02220  122.92
2880.000000  0.31440   46.15  4.89892 -123.80  2.88705   49.21  0.24557   81.45
2900.000000  1.05758   62.13  3.37607 -157.71  3.49373 -126.18  1.11954   33.16
2920.000000  0.55627    6.03  2.91740  104.76 11.48264  151.34  0.40553  -22.71
2940.000000  0.78170    3.98  4.00382  -24.43  7.64567  165.07  0.78960    4.93
2960.000000  0.36085   53.90  6.39664  123.98  8.04168  148.35  0.36451   47.12
2980.000000  1.41796   92.80 11.57342  165.06 12.80179  -47.16  1.14055   84.06
3000.000000  2.51376  -86.19 11.87218  -86.95 572.51365 -164.95  2.33596  -70.65
