# MHz S MA R 50
!   freq        S11              S21              S12              S22       
1000.000000  0.12686 -148.26  0.58531 -173.30 10.73815 -171.38  0.57830   92.10
1020.000000  0.04167   85.73 327.09435   81.05  1.51236  169.66  0.04125  -17.26
1040.000000  0.29492   98.74 37.42038  173.30 222.39578  152.64  0.31312   98.73
1060.000000  1.62254 -124.13  0.80235  -88.04  1.66894   77.97  0.74045 -105.76
1080.000000  0.09252   83.88  0.81623  121.48 13.87110  114.73  0.08917  146.64
1100.000000  0.11212  110.34  0.38748  176.25  0.68319  -37.21  0.04350  145.19
1120.000000  0.90496  -96.58 32.43906 -109.51  0.37567    7.10  0.69433  -89.34
1140.000000  0.21423   78.33  0.72271 -158.90  1.20376 -124.12  1.04199   69.90
1160.000000  0.59383   53.72  1.61231   18.54  1.32305   -0.16  0.24333   72.28
1180.000000  0.57406   60.24  0.67079  156.80  1.50812 -156.57  0.95721   73.45
1200.000000  0.94508   85.05  0.49537  -21.02  0.28313  147.79  0.26557   90.48
1220.000000  0.27664   87.06  0.64357   10.75  0.56050 -106.21  0.09427  110.46
1240.000000  2.12809  -77.45 226.77898  -33.68 53.52167  -82.07  2.10910  -76.87
1260.000000  0.99246 -121.55  0.72361    3.50  1.01526   -0.19  0.23757  -85.22
1280.000000  0.95325  -84.52  5.02090 -140.24 27.87427   90.09  0.92648  -86.89
1300.000000  2.85156  -77.27 217.43073  108.43  1.00694  -78.17  2.33604  -38.63
1320.000000  1.73734   95.11  4.04119  122.46  0.75352 -158.10  1.40085  109.09
1340.000000  0.26537   75.09  1.08314  119.57  5.61775   70.80  0.42811  100.29
1360.000000  0.35003 -118.28  1.02924  -65.94 13.90891   -5.78  0.30177  170.98
1380.000000  0.88853  102.72  2.38149   53.16  0.97379  162.74  0.93053   66.17
1400.000000  0.81254 -135.18  0.57402 -140.44  2.56482   34.47  0.95389 -109.33
1420.000000  0.01107   52.54  0.59112  -39.55  1.30756 -158.45  0.14161   82.57
1440.000000  0.76790  100.75  0.74147   62.95  7.00325  -12.33  0.89231   90.17
1460.000000  0.44914   57.21  0.56261 -143.09  6.10491  -86.35  0.96538   72.86
1480.000000  0.10952 -144.45  1.47890   20.91 104.13095  -10.71  0.30506  -78.26
1500.000000  1.16568  -99.76  3.58641   73.86  0.73060  -94.26  1.38281  -33.79
1520.000000  0.92271   51.99  2.27536  104.05  0.44947   62.78  0.50393   82.13
1540.000000  0.56950 -139.00  1.14636  -26.92  1.25259  121.03  0.81954 -117.07
1560.000000  1.44547   25.91  1.36141  172.85  1.05484  -66.57  0.72192   75.72
1580.000000  0.78996  -81.47  6.20849  -38.74  2.41594 -155.00  2.60780  -29.85
1600.000000  0.36594 -163.58  0.71607   62.13 273.18791   69.97  0.62239  -96.61
1620.000000  0.50862    5.43  0.64699    4.35  1.11173  -14.87  1.84272  128.14
1640.000000  0.73463   90.31  1.64425   72.09 12.40793  -94.87  1.16342  109.05
1660.000000  0.66893  -83.82  2.89087  -89.92  1.04014  178.42  0.60467  -33.13
1680.000000  1.15585   77.01  2.38901   66.90  1.87053 -110.60  1.45523  128.32
1700.000000  0.21260  102.77  2.43732  106.72  5.54431 -105.85  0.30662  107.74
1720.000000  1.66560 -155.55  0.54243  139.00  2.63006  101.27  2.42045  -13.71
1740.000000  0.67388  118.42  8.68177 -150.57  1.92600 -156.26  0.28249   92.48
1760.000000  1.39376  -42.26  1.36696 -118.02  5.44346 -103.13  0.99307  -71.31
1780.000000  1.12670   69.57  2.42605  -37.28 352.58292  -18.95  2.67419   57.99
1800.000000  0.62998   92.99  1.87419  115.27  0.58042  -94.38  1.03676  165.40
1820.000000  0.26369   68.57  1.33256 -112.46  1.31030   64.55  0.22663    7.14
1840.000000  1.18203  -84.47  3.26832   30.77  3.49162  156.47  2.18463  -31.00
1860.000000  2.00155   70.67  3.86212  -35.92  8.42253  139.17  1.50090   67.06
1880.000000  0.45765 -131.02  2.95017  116.50  1.11835  -28.18  0.30391   44.71
1900.000000  1.76009  135.84  4.38502  -26.38  2.89145   77.56  1.38207   43.11
1920.000000  0.36412  -95.84  0.59573  -49.79  1.25143 -102.09  1.72096   27.00
1940.000000  0.19077   82.53  0.60732  -14.08  3.58622  -42.63  0.42142  118.55
1960.000000  1.28612   -1.60  1.85066   29.93  4.13421 -120.07  1.00245  109.23
1980.000000  1.44591  -95.81  5.13298 -153.68  3.82127   31.69  1.21092 -115.74
2000.000000  0.87186   64.14  1.75699  121.10  1.63194   95.56  0.61200  126.42
2020.000000  2.99625  -55.16  5.08323  -80.66  2.08116 -100.25  0.53366  101.46
2040.000000  0.90021   90.06  4.29270  -77.57  2.19135   98.85  0.65343   78.74
2060.000000  1.73183  -66.10  4.96476  118.04 18.44390  -54.57  2.40133  -65.77
2080.000000  2.56468   37.25  5.94410   34.03  2.77546  -65.41  2.82965   91.45
2100.000000  4.95772   26.41  3.95694  -34.25  3.26813    0.94  2.27777  105.13
2120.000000  0.74115   19.10  2.77589   45.67  2.04985   11.64  0.91404  -86.92
2140.000000  0.86890  -70.69 324.98350  -36.39  5.65487   29.57  0.72934  -62.96
2160.000000  1.09632  144.08  3.21541   83.97  3.88319  -86.88  1.40790   86.93
2180.000000  2.23452   51.89 11.01127   39.34 367.76690  -84.55  3.35002   82.89
2200.000000  1.19849  104.59  3.91466  174.36  1.55658  -63.39  0.47717  102.67
2220.000000  1.07245 -116.84  4.04822   66.74  2.32417   61.96  0.60075  -81.66
2240.000000  0.14913 -118.44  0.98318   37.83  2.82886 -117.65  0.30593 -109.97
2260.000000  2.52832 -150.61 36.44921  -41.56  8.77614  -83.05  6.37204  -49.06
2280.000000  0.51474   97.01  3.95323  151.81  8.56220  124.75  1.22677  130.24
2300.000000  0.17430  -98.02  2.62722  136.17 13.79893  -67.03  0.29876  -80.95
2320.000000  1.98470   70.58  3.78871  109.79 11.39738  -72.15  1.05126   79.89
2340.000000  1.18130   75.48 56.82643   56.40  8.04860   95.43  1.59898   92.21
2360.000000  0.54327   78.56  3.31756  -53.47  1.58894   -0.90  1.92224   81.69
2380.000000  1.09261   73.53 495.63115  -23.30 650.87119   49.05  1.09127   73.63
2400.000000 13.43152  107.85  1.50689   -4.26  2.00369  -72.16  0.44612  106.47
2420.000000  1.72694   26.70  3.82116 -160.01  3.62735  153.29  2.21978   71.53
2440.000000  0.15298  -81.94 473.64449   65.79  8.04709  127.28  0.19056  -66.62
2460.000000  1.70676  127.53  8.36427  -93.96  4.52932 -116.57  1.32891  127.32
2480.000000  0.22951 -109.29  4.31520 -173.63  2.48274  -16.66  0.33974 -133.38
2500.000000  0.41614  151.60  4.14923  -24.26 10.25768  160.99  0.40781  162.65
2520.000000  1.07743 -153.93  3.95042  -21.81 14.41597  137.94  0.66758  137.59
2540.000000  0.20887  133.08  3.95787   53.81  1.50241   63.61  0.20126  128.61
2560.000000  2.83389 -172.81 457.40266  -90.35  3.27900   11.02  6.18443  163.32
2580.000000  0.49352  122.74  2.46926  112.22  3.18967   97.16  0.82782   66.72
2600.000000  0.63571  101.55  6.46795  145.86 379.14775   40.76  0.80738   87.02
2620.000000  3.65665   79.93 538.79579   75.00  1.88024  175.24  0.24410   71.07
2640.000000  0.87443   33.36 14.85577  175.26 435.26310  -77.37  0.89296   31.63
2660.000000  0.41897  -27.80 14.32771 -121.49  4.51703 -153.31  0.51470  -14.94
2680.000000  0.37231   15.13  4.96900    6.63  3.71902  173.07  0.23728  -17.36
2700.000000  1.39214   98.00  7.80979  -46.59  4.02318   96.88  0.84031   52.86
2720.000000  9.55524   -9.17  1.26975 -132.76  3.56580   24.02  1.02210   32.14
2740.000000 13.84814   73.10  7.84660  -83.24  7.81618  -77.83 13.03650    7.74
2760.000000  1.20522  177.08 16.99645 -159.69 24.45484   67.77  1.24615  176.20
2780.000000  0.50451  127.62 622.69723 -176.77 17.53487  160.50  0.46788  128.19
2800.000000  1.04332  167.09  1.51482  -48.11  7.23793  -72.69  1.20907  148.67
2820.000000  0.29282  159.14  5.75592  -48.16  3.82034  -45.02  0.26321  163.39
2840.000000  2.82230   -7.77  3.44263 -104.98  5.99581 -133.91  3.21705  -50.61
2860.000000  1.01694  112.90  4.73464 -107.16 41.15007 -156.56  1.05826  129.41
2880.000000  0.40148   65.12  5.18002  -80.34 11.22367  -72.04  0.28326   53.04
2900.000000  1.12897   57.23 87.45981 -125.84  4.04549 -135.72  1.46362   56.80
2920.000000  0.44933  -20.22  8.55494  135.75  5.90323  145.77  0.38141   -4.66
2940.000000  0.81681   -1.01  7.58782   14.82 10.88565    2.25  0.79832    2.73
2960.000000  0.33991   41.74 22.65881   -2.77  2.51649  177.44  0.22685   35.50
2980.000000  1.40901   84.66 49.56932  -43.29 16.33220    0.31  1.31359   83.67
3000.000000  2.68149  -69.36 31.39052   86.55 18.19142   59.26  2.48276  -79.24
