# MHz S MA R 50
!   freq        S11              S21              S12              S22       
1000.000000  0.83568   31.98  0.72750    6.51  2.56941 -172.12  0.53009   91.52
1020.000000  0.03162   91.86  1.19178   -2.04  0.58299   -0.78  0.03500   70.42
1040.000000  0.31102   72.28  1.75068   52.32  1.74041   57.81  0.99088  131.36
1060.000000  0.50166  -89.51  0.81959 -100.50  6.31292  -97.78  0.54461  -94.40
1080.000000  0.08099 -174.84  0.38566  -42.47  1.44954  118.87  0.15161  149.04
1100.000000  0.01959   69.23  0.73673  131.65  1.36677  -37.45  0.06332  -42.97
1120.000000  0.91180  -97.05 222.08434  134.92  1.40038   57.28  0.85593 -105.71
1140.000000  0.52262  176.01  0.50312   49.35  2.36019   18.59  1.43759  135.60
1160.000000  0.28114   88.65  0.91786  -20.78 114.31143  -59.57  0.29670   80.74
1180.000000  1.08404   78.42 103.53466   95.87  0.56936 -162.36  1.03343   15.94
1200.000000  1.24619   96.00  2.48022  134.76  0.50187  144.07  0.66792   54.51
1220.000000  0.27133   62.60  1.36502 -128.85  0.62054   17.73  0.15032   83.24
1240.000000  2.84064 -105.02  1.02803  128.02  0.87445  -72.94  1.14615 -118.43
1260.000000  0.79870  -91.66  1.79069  -89.92  1.74635  -50.56  0.79759  -84.03
1280.000000  1.88315   -9.57  0.51784  -74.45  0.90133 -127.60  0.26606  -76.02
1300.000000  3.01474 -158.26  0.55009  -40.12  0.28140  -51.40  0.96997  -19.99
1320.000000  0.53872   87.80  0.74228  -92.20  2.41337  -87.26  1.35399   82.30
1340.000000  0.37086  101.40  1.09719  -36.56  1.99357 -103.89  0.52657   97.63
1360.000000  0.25255 -140.89  0.63438   30.98  2.65855 -172.56  0.29933 -121.89
1380.000000  0.93125  100.44  6.10510 -174.98  0.28981   92.80  0.68024   81.73
1400.000000  0.95560 -134.33  0.50651   75.79  0.39443  -68.29  0.33603 -140.79
1420.000000  0.25938   84.19  0.65954   41.60  1.15221   47.37  0.36219   89.16
1440.000000  1.26150   63.36  1.48213  163.94  2.25473   98.66  0.82688   87.63
1460.000000  1.24546   62.66  1.09839  -48.67  4.08994  -94.08  0.86428   79.04
1480.000000  0.09256  -88.88  1.89459 -160.38  0.71162   57.18  0.29521  -63.17
1500.000000  0.96195  -69.90  1.54949 -101.21  1.10557   -3.66  1.01761  -67.81
1520.000000  0.52704   87.18  0.39055  110.97 248.67836    7.32  1.06476   69.84
1540.000000  0.79196 -102.18  1.29756 -111.01  1.51817   75.83  0.59879  -76.45
1560.000000  0.93269   92.68  1.22038   85.66  0.94093   21.97  0.82049   71.22
1580.000000  1.04106 -146.76  1.91271 -158.80  1.06017  -70.34  0.87330 -159.33
1600.000000  0.99731 -106.16  1.19345   96.97  1.02608    6.91  1.29183  -90.46
1620.000000  3.09808   18.77  0.67727  179.38  5.24688    6.48  0.81604   81.92
1640.000000  0.75281  134.27  0.99217   67.30  0.37477  135.26  0.88618   50.28
1660.000000  0.58715  -84.54  1.16997   -1.83  2.49391  109.63  0.76834  -85.29
1680.000000  0.21784   26.44  3.18906  -51.70  1.20439 -136.20  1.12074   31.94
1700.000000  0.02566  -54.00  0.45827   70.16 149.06903   10.66  0.22531  113.36
1720.000000  0.52443 -104.80  1.39802  -69.77  1.55835  105.12  2.23483   88.15
1740.000000  0.77111   77.85  2.67786  140.30  5.18421  144.63  0.73203  117.63
1760.000000  1.21550  -77.14 231.18351  156.33  2.85132 -140.97  1.56259  -67.32
1780.000000  1.50950   31.89  7.85709  153.48 10.55353   75.83  3.02437   31.65
1800.000000  1.04066   76.66  6.09795  -87.73  3.11137  -81.21  1.19634   81.63
1820.000000  0.16905  124.38  0.90881  147.84 474.81499   90.32  0.39670   67.13
1840.000000  2.06684  -61.65 533.34966 -158.05  1.62897   30.95  2.05391 -102.49
1860.000000  2.57408   64.38  1.07113  -18.07  3.04094  -45.80  2.99914   56.06
1880.000000  1.95233 -108.93  1.11289  -31.13  1.68607  -73.29  0.65780  -75.37
1900.000000  1.93746  133.48  1.93928  -20.95  6.61466   50.91  5.88536  107.68
1920.000000  0.42007  -85.29  0.98276 -124.95  0.58441  -52.73  0.48551 -152.57
1940.000000  0.46392   93.79  1.28208    8.03  3.65805  -62.88  0.26527  114.59
1960.000000  0.35814  139.56  1.08212  -11.08  2.03784   59.66  0.76108  112.08
1980.000000  1.85924 -111.71  6.05777 -156.27 14.62931   83.68  1.24719 -108.40
2000.000000  0.60304   67.20  1.58517  131.37 241.09624  -42.08  0.89474  102.22
2020.000000  6.97738 -131.01  4.53630  158.49  2.56830  -80.97  2.47674 -156.06
2040.000000  0.89259   80.74 246.71533   50.86  2.89041  110.23  0.72868   69.87
2060.000000  1.05177   54.15  1.72803    8.00  9.11198  -46.28  3.03403 -100.83
2080.000000  3.70306   77.35  2.37769   63.34  5.85944 -142.79  3.75223    7.96
2100.000000  0.48148   78.66  3.24543  155.06  2.90714  162.83  1.03264   54.54
2120.000000  0.87613  -67.54  9.91402 -171.73 10.85500  -30.28  0.73792  -59.99
2140.000000  0.67058  -56.38  1.88293   81.50  0.96163   28.16  0.62757  -42.75
2160.000000  0.63372  129.82  1.77044  -61.67  2.34138   93.40  0.64637   95.98
2180.000000  1.23940   54.96  2.03383   24.29  8.20695  165.16  1.23768   37.87
2200.000000  0.56638   67.52  1.02626  -24.81  5.61832  161.07  1.06789   91.94
2220.000000  0.64880 -101.11  3.62818  104.27  6.76682  -96.82  0.84930 -151.51
2240.000000  0.36391 -111.89  2.37212   24.84  2.50611   47.72  0.23445 -140.41
2260.000000  0.59780 -152.74  2.61844   60.76  2.52995  -56.62  2.24801  -54.65
2280.000000  0.72757  110.60  6.44437  -53.63  4.64638  105.56  0.70537  143.32
2300.000000  0.28394  -80.28  8.56141  131.01  7.69806  162.79  0.34068  -85.83
2320.000000  0.89973   66.80  8.82822  108.95 13.51537 -111.94  1.86924   54.71
2340.000000  0.90191  102.88  2.37459 -123.48  2.84379   57.97  1.56323   39.71
2360.000000  1.40103   71.28  3.44569 -161.36  5.33063  -65.31  0.55862  129.73
2380.000000  0.99910   82.24  4.55675   75.55 453.79512   23.48  1.09642   73.52
2400.000000  1.37663   23.93  5.04688  -32.92  5.92407 -175.89  1.20540   48.30
2420.000000  0.94981   42.03  2.39434 -138.75  2.12702 -179.82  0.98444   85.73
2440.000000  0.12284  -67.67  7.94223  -50.95  2.27031  135.40  0.09552  -94.44
2460.000000  1.02308  106.72  2.21447  113.40 10.47073 -126.90  1.58442  133.02
2480.000000  0.32822 -126.22  5.64115  -11.45 517.09442  117.98  0.29276 -122.59
2500.000000  0.37102  160.44 24.54188  -44.04 26.79162  175.84  0.40746  160.28
2520.000000  0.43773  149.59  1.37253 -158.20  5.78558  -16.75  0.80691  130.85
2540.000000  0.28640  131.15  1.96020   56.44 437.84752 -116.59  0.27608  152.13
2560.000000  2.79984 -172.32 540.28193 -143.16  6.10810  -22.16  2.00136  -93.53
2580.000000  0.47499   64.85  9.36435  -21.56  2.15919  -52.37  0.28224   70.12
2600.000000  1.14501   17.18  1.72114  125.31  3.50921  -22.09  1.54137   97.64
2620.000000  1.18395 -156.68  1.68239 -167.28  6.66495 -148.86  2.02415 -157.43
2640.000000  0.86091   49.04  2.13287 -171.78  2.68660  163.56  0.85284   47.68
2660.000000  0.71948  -63.12  1.99256 -141.09  1.21382 -105.34  0.09338 -104.98
2680.000000  0.07199   95.04  1.17620 -157.06  3.71738  176.97  0.21183   55.26
2700.000000  1.81749  148.29  2.82053   89.11  2.82748   88.85  1.86792  158.81
2720.000000  0.05856  -44.02  2.11748 -112.71  2.34859   63.74  3.13334  -62.72
2740.000000  9.14078   81.91  7.82437  -77.91  1.58063  -86.88  0.04673  -13.30
2760.000000  1.13631  174.94  5.37271 -140.32 290.96318  128.01  1.23007  176.70
2780.000000  0.34682  110.60  2.32052  -39.74  4.11049  -48.47  0.60562  115.14
2800.000000  1.24621  150.33  7.18896  -21.39  1.90836  -27.09  1.07733  167.92
2820.000000  0.28996  119.47  2.15705  -36.96  3.50644  -51.81  0.33810  139.13
2840.000000  3.08605   39.03  4.65864   71.67 621.09833  -35.54  4.86307  -49.31
2860.000000  1.24089  108.51  3.66511   64.60  7.43463 -138.60  1.00449  124.48
2880.000000  0.26773   49.47  4.69413   69.08  3.98931   93.86  0.16717   12.69
2900.000000  1.07993   52.61  4.66866   26.99 14.62182 -172.46  1.09854   58.40
2920.000000  0.48087  -25.80 21.70598  116.47  4.64485  -27.35  0.87541  -59.71
2940.000000  0.73500    0.38  4.29920   39.23 18.33323  -37.16  0.81830    4.37
2960.000000  0.34752   51.47 11.75194  152.71  5.60784  165.82  0.28082   47.34
2980.000000  1.35620   89.00 25.76928 -170.15  9.42237  172.25  1.27584  108.11
3000.000000  2.31879  -78.32 23.94854   82.52 15.59010  -89.67  2.22378  -55.38
