# MHz S MA R 50
!   freq        S11              S21              S12              S22       
1000.000000  0.34894   65.42  0.83221 -170.49  8.33293 -171.15  0.51952   82.20
1020.000000  0.02849  121.80  0.22599    5.70  0.12151 -152.16  0.03495  113.28
1040.000000  0.34649  106.07  1.36937   50.58  2.56454 -118.81  0.16614   99.25
1060.000000  0.46507  -88.06  0.27645  107.45  1.81661   80.72  0.50932  -66.62
1080.000000  0.06640  138.44  0.50805  -76.60  1.84462  -56.22  0.09122  165.77
1100.000000  0.09218  141.39  3.12494  155.93  1.85846  128.90  0.10605  145.92
1120.000000  1.16968  -83.82  4.16072   44.02  0.31005  -70.51  0.61717  -77.80
1140.000000  0.45699  113.15  0.34403 -162.36  1.35694 -159.63  0.72364   99.23
1160.000000  0.28354   97.35  1.83475  -19.85  0.45788   21.03  0.15046   98.67
1180.000000  0.57347  135.60  1.50182 -167.78  0.23859  -30.90  0.51072  120.13
1200.000000  1.21363   77.79  1.35524   84.51  0.56966  134.25  1.53633  129.54
1220.000000  0.20387   50.57  0.58558   51.50 101.07696   72.14  0.32743   68.19
1240.000000  2.13231  -76.96 73.51766 -149.83  0.40076   49.98  0.71016  -95.17
1260.000000  0.85436 -106.00  1.21970   54.51  0.39912  161.00  1.38344  -94.03
1280.000000  0.90671  -86.05 102.48814 -177.32  1.14460   40.99  0.69836  -72.06
1300.000000  2.80428  -77.25 83.60525  154.66  3.49449  147.40  2.37341  -72.75
1320.000000  1.11791   70.66  1.22058   86.45 12.54577  -88.77  1.60117   99.18
1340.000000  0.31238   85.02  0.28917   -8.30  2.14248  -61.16  0.32955  141.54
1360.000000  0.19442 -107.57  0.49894   92.49  0.80953  -51.95  0.31250 -131.53
1380.000000  0.26138  134.17  0.19103  128.59  0.68761  133.17  0.77956  117.95
1400.000000  2.46050  166.92  0.68737  -18.06  0.92843  156.81  1.07527 -147.69
1420.000000  0.18353   91.57  4.34408   44.12  0.69444  117.93  0.30054   72.53
1440.000000  0.75106   97.05  0.76358   68.99  1.98121 -170.39  0.98042   92.91
1460.000000  0.46866   17.52  0.32598   81.54  2.76277  -12.16  0.56849   55.86
1480.000000  0.24793  -69.96  3.33653   26.88  1.77229 -110.64  0.31968  -49.19
1500.000000  1.70154 -132.04  2.17102 -156.49  5.59754    5.48  1.05409  -82.25
1520.000000  0.32222   38.04  1.40797  128.75  1.24048    2.75  0.76656   91.14
1540.000000  0.77495  -35.33  0.53956   80.90  1.36128   67.11  0.58011  -71.77
1560.000000  1.06321   25.39  1.43063 -160.11  2.17951   23.46  1.34025   53.19
1580.000000  1.30527 -115.67  0.80455  -37.20  2.23549 -152.00  0.48700 -129.50
1600.000000  0.88813  -55.58  0.61831 -108.94  0.98989  169.40  0.83698 -133.75
1620.000000  0.49106   91.51  1.39130   11.85 193.32262 -168.15  1.11787   92.14
1640.000000  7.03420 -143.33  0.97249   87.92  1.52853 -169.16  0.66788  112.75
1660.000000  0.73279 -102.42  4.35573   13.73  2.68936  -20.76  0.67335  -97.74
1680.000000  0.63052   77.65  2.44403  -57.94  0.68118 -151.44  0.60509   56.38
1700.000000  0.21762  120.34  6.22414   31.77  0.65075  140.08  0.01995  134.36
1720.000000  1.07538  -93.81  0.78432 -160.48  1.38762    9.53  1.03973   92.53
1740.000000  0.97740   65.61  1.71078  -60.18  1.66431  -71.00  1.12041   48.97
1760.000000  1.85392  -44.71  1.73617  155.02  1.67889   68.05  0.62164 -106.77
1780.000000  0.77309  -36.50  0.94507    0.28  2.08786 -114.54  1.51667   56.42
1800.000000  0.61997   84.64  2.49494   31.61 184.96949  151.93  0.97247   69.84
1820.000000  0.42093   73.34  4.97572   56.68  1.79468 -105.19  0.12954  -89.44
1840.000000  1.40760   -3.31  2.19845  138.22  1.74930  -27.67  1.11819 -140.09
1860.000000  1.17678  106.57  3.21005   17.38  1.37922  -61.32  0.81252   43.26
1880.000000  0.94452 -102.03  3.44965  -34.49  0.49033  -35.22  0.09703    1.62
1900.000000  3.70102   80.31  2.78872  132.38  1.04746  150.73  1.74650  -20.21
1920.000000  0.74240 -130.51  1.82171  -93.45 262.81713  -99.51  0.89730 -111.67
1940.000000  0.29984  116.06  7.22785  123.59  4.27311 -105.75  0.35579  128.15
1960.000000  1.09479  103.98  7.46630 -133.06  5.21835 -101.35  0.92611  121.55
1980.000000  2.04502  -62.56  1.42159 -117.73  1.20560 -100.98  0.76241    0.19
2000.000000  0.98856  127.28  2.75408  -81.14  4.70929  112.92  0.78534  107.46
2020.000000  3.54709 -108.54 20.05546  173.30  2.45671 -100.86  6.54506   35.21
2040.000000  0.89165   80.66 189.96283   25.20  1.72998   50.58  0.53536   77.97
2060.000000  1.56147  -26.11  1.96520  -75.73  0.77981  -24.89  1.44767 -102.45
2080.000000  2.43128   39.82  4.56186   72.39  1.52791   79.86  1.33748 -171.84
2100.000000  1.07139   67.48  5.24117   44.26  9.73033  179.73  1.47638   93.26
2120.000000  0.68089  -44.26  9.70447   -9.33 253.69540 -106.64  0.81041  -65.70
2140.000000  0.71339  -71.26  5.83958  -91.79  2.47747   73.55  1.05720  -54.10
2160.000000  6.69274  112.79  1.18266   82.03  1.00593  134.91  0.19255   40.34
2180.000000  0.90721   59.26  2.53407 -100.49  1.71865   70.11  1.43198  100.16
2200.000000  0.73716   93.40  3.90611   -7.12  2.03940  -57.75  0.43166   78.71
2220.000000  0.27883  139.43  1.21057   59.15  3.11985 -155.11  0.73677 -121.61
2240.000000  0.22301 -117.64  3.40892   67.94  5.84140   10.40  0.32559 -131.24
2260.000000  4.19961   40.96  5.96006   88.49 12.70036  104.72  2.25853 -153.39
2280.000000  1.28362  109.03  2.91812  138.78  4.97646   92.46  0.56702  105.10
2300.000000  0.35687  -92.53  6.60806  138.12  2.32214   98.58  0.26666  -68.81
2320.000000  0.74930   61.12  3.15867   31.89  3.08695   31.21  0.56049   75.21
2340.000000  0.58387  101.26  1.64178  -86.31 57.51019 -136.21  1.12776   74.37
2360.000000  0.88206   64.97  6.60066    8.69  6.99057 -164.98  1.21518   75.62
2380.000000  1.24750   57.46  5.23625  133.15  3.30670   92.26  1.00865 -156.92
2400.000000  0.83897  102.50  2.32042    6.36  7.49035  -33.74  1.68670   59.07
2420.000000  1.35521   59.19 154.20211   -1.67  9.61708  -18.66  1.49544   68.48
2440.000000  0.17648  -64.26  9.31499  168.68  3.09881  105.05  0.32670 -108.29
2460.000000  2.20366  112.02  4.02697   88.49  4.14617  -82.75  2.03262  123.24
2480.000000  0.57269 -120.42  2.32919  -29.17  5.60332   -4.68  0.25410 -142.25
2500.000000  0.38936  157.03 18.65574  106.07 20.91979  -88.34  0.36888  160.01
2520.000000  1.54723   62.80  1.66429  140.47  5.86387 -179.20  0.50007 -121.61
2540.000000  0.22140 -161.22  0.89752   29.65 757.84869   -6.92  0.27680  152.13
2560.000000  1.81367   66.88  2.03719  -22.15  3.33025  -24.82  1.52144  102.08
2580.000000  0.31596   75.61  4.20574  -61.23  1.85249  -88.52  0.41170   46.81
2600.000000  0.59643   90.28  6.98733  121.14  6.93278  122.76  0.73335   93.14
2620.000000  0.48463  173.05  1.35058 -147.74  6.63036 -161.90  3.13225  134.53
2640.000000  1.95465   14.09  4.79156   -1.01  2.41027   27.69  0.60791   27.48
2660.000000  0.21987 -135.91  1.88003 -134.35  1.19192 -116.77  0.31050  -54.45
2680.000000  0.18691   24.11  7.83160  -23.12  4.49526 -150.04  0.15461    9.93
2700.000000  1.78747   60.50  7.55502  -52.52  3.79638  123.43  0.51474 -171.06
2720.000000  1.23086   61.29 508.43886  157.07  1.35654 -116.45  0.56986 -138.46
2740.000000  5.62034   49.13 486.36081 -173.44  3.90047  103.24  2.80720   41.06
2760.000000  1.24434  176.27 15.33350   20.09  5.59463 -166.97  1.18256 -177.61
2780.000000  0.69778  125.08  2.21689  -37.97  2.50239  -23.22  0.39504  158.68
2800.000000  1.39515  142.66 12.73567  -10.34  1.99155  148.85  1.81162   73.13
2820.000000  0.33691  153.35 20.37900  -13.54  4.31887  -79.59  0.27932  161.75
2840.000000  3.63709  -39.75 20.27976   22.10 19.87357   79.62  3.92717  -63.75
2860.000000  1.17665  130.52  9.87226   81.91 11.88221   17.13  1.13421  132.04
2880.000000  0.24407   58.13 24.90844   29.14  4.37843 -126.64  0.28438   46.56
2900.000000  0.98968   62.86  3.51679 -125.10 692.65149  102.55  1.12192   56.70
2920.000000  0.17499   15.13  2.11435  105.19 12.46773  -80.75  0.47999  -28.35
2940.000000  0.87324    3.91 26.64639   33.18  2.76017   -3.37  0.74336    1.97
2960.000000  0.23968    6.77  6.19775  144.95 23.30442 -178.51  0.35930   42.35
2980.000000  1.13974   66.40  6.54478  -18.08 46.92073  -10.15  1.80051   92.52
3000.000000  2.90838  -79.55 49.59863   72.74  9.47073  -84.26  1.94469  -59.42
