# MHz S MA R 50
!   freq        S11              S21              S12              S22       
1000.000000  0.93201   64.99  0.40311    9.82  0.05372  -47.02  0.41453   83.63
1020.000000  0.03191   85.76  0.48645  171.28  1.00572   -2.84  0.03270   88.26
1040.000000  0.30943   81.98  1.16575   69.85  0.16678 -112.76  0.27296    7.72
1060.000000  0.31576  -49.17  0.79727   80.32  2.42960   80.67  0.67850  -90.27
1080.000000  0.07607 -150.97  1.14627  -71.03  1.50930  117.42  0.11245 -164.58
1100.000000  0.08420  164.92  1.26566  -38.14 28.80121  131.55  0.08718  149.60
1120.000000  0.54580  -87.94  0.25325  130.92  0.88884   32.84  0.23618 -100.49
1140.000000  0.77995  134.67  0.41535   53.70  0.82052 -110.95  0.58057   99.10
1160.000000  0.23279   91.03  1.68775 -157.72 17.45628    8.03  0.27676   81.69
1180.000000  1.09540   78.88 173.09653 -101.93  5.10205    9.80  0.89748   70.30
1200.000000  0.34011  -28.33  0.17385 -150.71  4.11708 -106.88  0.29416   85.90
1220.000000  0.32446   64.66  6.91070 -160.98  1.48910 -131.71  0.99498 -151.10
1240.000000  1.34161  -59.58  3.26260  -76.74  1.10591 -105.85  1.53736 -120.46
1260.000000  0.74821  -87.62 164.21829  -63.15  1.52624 -147.23  0.47617  -79.61
1280.000000  0.43361  -70.87  1.08635 -132.43  0.31562  -57.65  1.49118 -136.90
1300.000000  4.14719  -70.09  0.85647  -63.92  1.79655  -13.35  1.30940  -27.06
1320.000000  2.32081   89.98  0.84220  164.87  2.38966  -79.35  1.04004  135.06
1340.000000  0.47331  104.79  2.29070   18.84  4.62644   66.37  0.47099  102.34
1360.000000  0.32394 -158.68  0.93614  -88.30  1.01101 -159.66  0.23440  -97.53
1380.000000  1.19168   67.67  0.68021  164.87  0.50036   75.79  1.03911  132.03
1400.000000  1.22942  -78.36  0.61976   48.33  1.45822  -24.11  1.41079 -107.84
1420.000000  0.19678   92.42  4.63777  -86.79  0.56459 -106.23  0.11442  101.00
1440.000000  0.80083   85.46  2.99641  169.49  2.34913  -54.99  1.36377   86.21
1460.000000  0.40174   86.76  1.07551   32.68  2.46764 -118.38  0.94230   85.67
1480.000000  0.41242 -118.94  0.61861   62.40  2.98655 -147.30  0.29249  -83.95
1500.000000  0.88920  -79.61  6.60950 -104.95  1.15761  -98.32  0.74626  -66.04
1520.000000  0.83610   76.24  1.28275   37.38  4.13650   -0.83  0.89006   52.66
1540.000000  0.99896   49.57  0.68211  -93.52  2.22017  -97.18  0.94986  -62.80
1560.000000  0.25243   74.16  0.58714  -79.78  1.02245  -14.37  0.76834  118.24
1580.000000  0.61701    6.10  2.23439 -114.96  4.37477 -113.73  0.91167  -81.79
1600.000000  0.16849 -142.92  2.12089   18.56  0.58108 -107.63  0.43059  -58.80
1620.000000  1.54511   77.26  5.82624  -98.56 154.05733  -91.79  1.13948   92.03
1640.000000  1.15598  111.07 119.11191   55.73  5.17428 -165.07  0.90379  119.09
1660.000000  0.70817 -120.10  1.60067   -5.31  2.43187  -10.48  1.50034  -84.51
1680.000000  1.59699  103.03  2.29780 -179.81 333.95190   74.57  0.99561   91.37
1700.000000  0.18527   97.92  2.10216   45.26  0.68665   55.33  0.05136   55.70
1720.000000  4.72020  -46.26  4.01860  -67.87  1.61417 -158.03  1.33883   36.85
1740.000000  0.73899   87.81 13.95974   39.42  2.62544  -35.58  0.97311   84.64
1760.000000  0.74599  -55.09  1.92220   -3.61  2.51049  138.35  1.94916 -100.24
1780.000000  2.75037   49.26 40.04405  148.22  0.86157   41.43  0.50577    8.13
1800.000000  0.32938  -50.19  0.57744 -155.08  2.57156 -152.85  1.31888   70.92
1820.000000  0.31929   69.72  2.87559  -71.20  1.24815   87.61  1.74076  147.26
1840.000000  3.65713  -33.46  3.01955   18.69  2.94008    1.41  1.01037 -119.18
1860.000000  1.44221  111.94  1.67935  -21.15  1.14623  -24.05  0.69895    6.03
1880.000000  0.91380  -96.46 240.14088  -41.43  3.54051  -36.90  1.15852 -101.22
1900.000000  1.25383  -39.32  1.68542   62.40  2.87068  166.96  2.00923   68.95
1920.000000  0.57899  -82.25  1.38795 -135.26  0.80728  -23.60  0.42609 -154.93
1940.000000  0.38382  129.96  2.34111  -56.70  1.26915   13.76  0.20449 -151.28
1960.000000  1.22626  114.46  7.31547 -155.74  1.64947  -10.55  1.78967  140.03
1980.000000  0.59605  -99.29  1.41186  174.55  1.95104   75.96  0.95261 -124.58
2000.000000  3.16745   37.80  2.90053  127.63  1.33824   78.61  0.59001  132.23
2020.000000  0.56097  143.17  0.76433  -32.15 11.38311  -39.20  3.72531 -118.69
2040.000000  0.54459   27.14  1.26265  132.59  8.79595  106.35  0.69933   80.51
2060.000000  3.81083  -50.64  8.87161  149.90  1.29415  -42.57  0.41779   33.57
2080.000000  1.77728   43.82  2.33318  -92.28  3.59353  116.96  1.63284    9.54
2100.000000  0.96703   81.49 12.72885  -22.55  9.89815    0.19  1.25100   80.63
2120.000000  0.85498  -49.55  5.83617  144.88  6.23653  -41.93  0.92140  -77.05
2140.000000  0.45953 -148.33  1.00852 -117.56  5.69800  -94.49  1.00743  -95.70
2160.000000  0.95571   89.21 386.94555   15.23  5.26879  -52.17  0.76483   89.58
2180.000000  3.03131  108.78  5.97614   53.99  1.46550   54.16  8.91177 -117.55
2200.000000  0.70944   89.62  1.90417  -19.02  1.41939  -27.71  1.03229  124.00
2220.000000  0.87113 -112.16  2.06228   51.71 526.28262  -15.80  1.17600 -120.46
2240.000000  0.18106  -93.44  5.00825 -128.92  2.93536   35.73  0.22147 -140.23
2260.000000  1.50640 -156.66  4.78371   51.27  3.13787  125.05  1.56868   22.05
2280.000000  0.52172  178.28  2.83166  -28.94  1.58720  -49.30  0.60560  119.80
2300.000000  0.25019  -89.34  9.71060   -7.68  2.59488  -63.81  0.21600  -63.49
2320.000000  0.56369  115.63  1.66916 -115.28  3.00093 -111.64  1.35421   59.83
2340.000000  0.73570  106.86  2.19839   33.48  2.02374  -59.78  0.62321   48.98
2360.000000  1.23195   70.55  7.59734  144.63  3.04284   -2.11  0.48621   72.98
2380.000000  1.02542   83.40  4.98950  104.23  4.28148   84.35  0.80426  102.78
2400.000000  1.48494   44.32  8.88284  -63.29  5.05436  144.66  1.37831   47.60
2420.000000  1.81215   55.51  6.39680   -9.20  4.50179  166.87  0.84328   47.43
2440.000000  0.16713  -79.52  9.01342  108.42  5.65877  114.47  0.13444  -74.34
2460.000000  1.51513  123.83 930.22653   26.16  5.70011  -44.99  1.28983  110.94
2480.000000  0.28462 -133.70  4.21332   22.38  1.57011  165.13  0.58821 -157.50
2500.000000  0.59404  174.05  2.79774   97.46  4.30092  -58.04  0.47571  156.96
2520.000000  0.56774  161.45  2.16260 -162.43  1.54900  151.54  0.33301 -159.48
2540.000000  0.34464  149.23  2.95044   44.76  4.74996 -124.33  0.30560  -99.29
2560.000000  3.09423   93.34  1.53668    1.99  2.41790  -17.92  0.15782   16.03
2580.000000  0.79137  124.00  5.58030   58.40  6.66051   87.76  0.55938  100.23
2600.000000  0.94324  176.52  0.80653  137.09  3.02556  125.07  0.36563  -35.15
2620.000000  0.45038 -127.29  1.13403 -166.91 437.11526   91.74  3.64716   81.83
2640.000000  0.76864   29.34  7.42230  174.48  6.96252   40.54  1.12686   26.16
2660.000000  0.77070  -30.60  2.27082  -78.26  0.89468 -113.80  0.20021  -46.48
2680.000000  0.11623  -32.79  2.14656  163.87  6.52715   21.33  0.29464   28.76
2700.000000  1.14734   86.16 547.59980   59.60  1.26253  122.41  0.12477   96.46
2720.000000  0.82943   19.83  2.11860 -164.10  1.45566 -167.27  0.69522   19.02
2740.000000  1.51965   82.66  2.86778 -102.99  2.75956   81.24  2.04869   53.82
2760.000000  1.37786  173.21  2.03021   19.60 489.43170  176.98  1.22880  176.72
2780.000000  1.23586  102.10  4.35831  -24.06  4.39599  159.60  0.42740  128.11
2800.000000  1.23486  143.20 651.66191  153.73  2.43670  -47.59  1.21175  161.27
2820.000000  0.26077 -169.74  5.38755  100.29  3.14189  -18.67  0.31221 -178.70
2840.000000  3.04870   85.38  3.53519   51.90  8.96739   43.27 11.32160  -63.85
2860.000000  0.84271  166.70  2.29681 -135.14  4.49330 -122.21  0.97748  122.85
2880.000000  0.21187   53.88  5.87730   97.66 725.94717    1.28  0.25861   59.24
2900.000000  0.38084   22.96  2.25330 -157.78  8.99527   21.22  1.13579   52.66
2920.000000  0.41648  -21.21  7.06629  129.02 26.07933  162.85  0.42515  -27.08
2940.000000  0.87740    3.43  4.52224  168.53  4.41121 -178.65  0.86872    1.68
2960.000000  0.39712   32.52  3.64877    6.63  2.62818  150.36  0.29430   52.43
2980.000000  1.46726   75.25  7.75076  -30.08  9.20773  -14.40  1.33647   69.85
3000.000000  3.29599  -75.62  7.87673  123.60 15.71659 -105.17  2.87398  -65.24
