# MHz S MA R 50
!   freq        S11              S21              S12              S22       
1000.000000  0.59054   84.42 38.03905  -85.13  0.45439    8.08  0.31897  -23.68
1020.000000  0.04327   79.54  1.30615 -177.52  0.05718  141.73  0.01515   89.42
1040.000000  0.44778   84.72  1.16137   54.32  0.06392   22.64  0.83163  167.71
1060.000000  0.28879  -80.85  0.48205   93.94  1.04857  -89.91  0.42386 -146.19
1080.000000  0.08356  155.91 16.32448  114.04 176.58251 -161.49  0.08332  155.64
1100.000000  0.05755  134.81  0.61109  -41.20  1.30220  -34.46  0.06733  146.33
1120.000000  1.16520 -138.93  0.15809  -89.39  3.19764 -156.40  0.91955 -101.87
1140.000000  0.62560   98.08  0.34630  170.24  0.32284  166.16  1.02930  109.93
1160.000000  0.29286   81.91 43.20436   50.51 22.15070   13.79  0.31238   82.48
1180.000000  0.83510   45.75  0.22341  -38.60  1.80995   23.14  1.23031   72.65
1200.000000  1.20671   21.70  0.54510  136.62 88.56520   54.78  1.15093   85.91
1220.000000  0.51919   75.51  0.28373  119.46  1.61460  108.09  0.33184   64.94
1240.000000  1.48760 -104.83  2.12459  100.07  3.67056   77.22  0.62299  -59.67
1260.000000  0.77330  -88.07  3.55994  105.35  0.69466 -118.65  1.48616  -71.37
1280.000000  0.71885  -76.62  2.05525 -134.79  0.46263   32.13  0.18890 -133.39
1300.000000  2.40875  -65.00  5.06065  158.55  0.29150  -92.59  0.62832 -105.70
1320.000000  1.73252   76.45  3.63304  -82.13  0.83424  132.20  0.18198   48.36
1340.000000  0.43173  103.04 255.76510 -144.67  0.80519  -53.08  0.25306  135.95
1360.000000  1.22429   11.78  3.40574  -40.82  3.69380  128.75  0.25851 -107.80
1380.000000  0.38093 -178.70  0.50291  147.59  1.64278   43.00  0.90096   75.50
1400.000000  0.93337  -97.43 125.57626  135.32  1.78534  -46.81  0.86047  -93.81
1420.000000  0.17601   81.66  1.08293   52.50  2.60436 -157.21  0.19692   99.74
1440.000000  1.23674    5.39  2.34350  165.11  0.53683   70.24  0.53766   67.06
1460.000000  1.77522  125.64  0.70833   98.13  0.59338  -54.68  0.99364 -173.64
1480.000000  0.18752  -79.23 12.64551 -164.31  5.68518   32.81  0.32262  -73.79
1500.000000  1.05755  -89.56  2.99696 -101.95  2.38364  114.42  1.31225  -91.84
1520.000000  1.10008   73.42  7.75499 -135.82  1.83280 -124.74  1.26593   68.59
1540.000000  0.81491  -71.75 152.61597  -24.96  1.78893   -6.60  0.44122  173.95
1560.000000  1.38290   42.44  0.78126 -125.15  2.10726 -155.02  1.97079   81.05
1580.000000  0.49670  -47.23  1.02370 -129.08  4.23252 -108.43  0.97426  -73.45
1600.000000  0.62636  -89.39  3.09972 -162.47  0.79986   65.72  3.59920   33.43
1620.000000  1.38823   81.78  7.40375 -153.15  2.08779  -34.74  0.87422  108.72
1640.000000  1.12650  126.21  1.44674  154.24  1.23948  101.33  0.62693   76.37
1660.000000  0.48894  -26.15  1.75126 -175.80  1.17696  -33.44  1.24250  -57.15
1680.000000  0.82627   76.78  2.86290 -153.95  1.23169  -98.93  0.91713  114.77
1700.000000  0.17573    6.15  2.98542 -134.01  1.68898  142.58  0.17004  125.16
1720.000000  8.96201  -97.45 157.73764  101.37  2.14706 -130.41  1.36188  -25.81
1740.000000  0.11113    9.78  0.78141   94.82  3.34055   17.85  0.97607   63.90
1760.000000  1.20648  -77.37 179.06202  135.91  1.06409 -129.22  0.93879   97.94
1780.000000  1.12268  100.37  1.89769   36.23  0.67186   52.70  0.30135   83.58
1800.000000  1.23230   33.87  0.82047 -118.15 392.03168 -138.12  0.97423   69.16
1820.000000  0.37706   36.04  1.22195  -29.18  4.09874 -111.91  0.08859   14.59
1840.000000  0.81951 -117.33  1.20929  -30.52 19.02788 -120.68  1.95686  -66.25
1860.000000  5.45551  -10.40  1.18112  -27.33  3.48301   31.23  1.65519   31.82
1880.000000  0.44995  -67.85  1.07550  -15.92  1.05705  -18.89  0.29603  160.62
1900.000000  4.59876   68.83  4.02628 -103.64  1.90965   81.63  4.61777   51.02
1920.000000  0.73002 -135.42  2.66111 -103.23  2.06151   75.82  0.70608 -115.74
1940.000000  0.21378  113.21  2.59763   -2.53  1.20564  141.52  0.26927  105.10
1960.000000  0.20424  -31.28  0.82620   -9.18  8.35022   -0.53  1.34571  109.92
1980.000000  1.18810 -102.56 285.67383  113.55  2.88102    6.43  1.25953 -110.95
2000.000000  0.71590  107.18  4.08298   26.99  0.74247   54.59  0.34535   86.25
2020.000000  2.42320 -126.42  4.42958  154.59  2.95196  -67.69  0.84228 -112.32
2040.000000  0.80181   71.87  8.56527   53.84  2.38860  128.44  0.32710   71.53
2060.000000  1.00441   -6.59  1.20275  -73.34  4.58001  135.94  4.30982  -65.41
2080.000000  3.61621   24.48 10.23829  -77.09 278.16636   -0.57  3.84607   35.66
2100.000000  0.82095  101.22  2.60712  -24.43  3.16343   18.29  2.67367   56.07
2120.000000  0.82532  -84.07  3.32490  170.17  1.98357   -9.34  0.98944 -127.97
2140.000000  0.71708  -27.05  2.81172   30.83  7.55622   90.63  0.74780  -75.04
2160.000000  0.76750   89.39  6.35511  151.42  1.16651  159.17  2.42516   42.53
2180.000000  1.28316  162.33  1.55400   61.30  6.01884    6.57  7.16240   31.81
2200.000000  0.86010  120.50  9.22201  109.02  4.73177  -56.48  0.74128  101.05
2220.000000  1.22836 -102.05  6.41320 -156.17  2.90551   77.42  1.09432 -111.68
2240.000000  0.26542 -128.29  6.22339    7.17  4.24280   80.80  0.32728 -103.87
2260.000000  3.34666 -143.59 11.91901   90.47  2.39163   78.67  2.03107 -121.01
2280.000000  0.66048  115.38  3.80030  -23.25  1.24786  111.11  0.38487  123.48
2300.000000  0.27993  -80.23 10.42625  127.29  4.66833   87.36  0.24556  -86.33
2320.000000  1.16828   80.66 12.11521   94.32 111.17583   76.27  1.02714   71.00
2340.000000  1.23926   77.57 30.61470   91.18 30.01165   87.93  1.20449   71.24
2360.000000  2.64769   96.36  5.97385  125.25  4.19247  153.02  1.14553   86.97
2380.000000  1.03505   33.20  2.79563 -131.44  2.96559   96.30  0.85656   74.00
2400.000000  1.49121   40.24  2.60932  135.86  7.72299  139.84  1.86825   32.53
2420.000000  1.09209   41.16  5.53782  -26.82  6.72217    2.93  1.60945   56.37
2440.000000  0.05593  -48.08  1.58827  140.13  3.96854  -32.06  0.12619  -75.95
2460.000000  1.47640  124.97 136.30377   56.67  8.24668   77.37  1.29005  126.95
2480.000000  0.36168 -132.56  3.08789 -162.74  3.99116  153.63  0.23899 -110.89
2500.000000  0.43848  169.00  4.33039  -49.55  8.85589  -46.48  0.31437  162.11
2520.000000  1.29382   87.07  1.45328  170.47  1.52489  155.11  0.46330  159.48
2540.000000  0.22042    8.09  2.11166   30.04  3.08254 -112.68  0.23191  157.13
2560.000000  1.97826 -158.81  6.70577 -165.99 21.72172  179.87  2.61806 -175.04
2580.000000  0.33344  145.86  2.47688  103.04  5.01044  -75.00  0.37782   45.55
2600.000000  0.34634   85.06  3.78225  113.04  5.26194  155.71  0.69249   83.17
2620.000000  4.17461   48.18  6.89095   56.65  7.44745  175.67  2.83066  140.89
2640.000000  0.72908   57.91  7.02954   23.12 13.92493 -172.66  0.84415   39.53
2660.000000  0.20838  -38.86  2.04133  -87.46  5.50253  113.23  0.28280  -20.52
2680.000000  0.12068  -42.44  2.25581  141.46 15.83100 -165.30  0.20649   -0.72
2700.000000  0.90586   97.52  7.59869  105.54  2.01652  139.73  0.63568  127.43
2720.000000  0.71108   59.09  6.83109 -140.73 15.93377 -124.11  1.13824   63.66
2740.000000  6.46402   20.63  8.07725   88.26  9.00870 -118.93  5.68265  -10.55
2760.000000  1.17945  176.81  5.41265 -151.88 375.91863   93.25  1.23175  176.63
2780.000000  0.48675  125.62 16.35605  127.33  2.04821  165.01  0.32177  169.98
2800.000000  0.84314  157.33  6.69008  -42.93  5.22759  115.95  1.44924  142.63
2820.000000  0.33687  153.39 12.82156  -20.42  5.68333  139.99  0.40621  158.87
2840.000000  3.60976  -64.91 18.28911   36.28  4.53551   43.31 11.56986   41.81
2860.000000  0.74384  125.56  3.05946 -111.65  6.16003 -112.91  0.95795  123.90
2880.000000  0.27386   58.39 18.68199 -106.63  8.15514   94.88  0.23363   61.72
2900.000000  1.05787   49.78  4.03666   47.17  7.37937    8.38  1.18791   53.27
2920.000000  0.46156  -33.18 12.42560  -36.41  6.72146  -62.89  0.48222  -29.94
2940.000000  0.67772    3.17  2.96322  -10.53 11.34858  -14.20  0.77945    4.59
2960.000000  0.29530   48.27  4.44216 -167.43  7.49977  164.60  0.38070   44.23
2980.000000  1.55747   72.92  5.92769   -5.07  3.13811  149.83  1.95969  110.06
3000.000000  2.37435  -87.34  8.59813  -70.98 13.69412   95.99  2.35979  -80.04
