# MHz S MA R 50
!   freq        S11              S21              S12              S22       
1000.000000  0.63630   83.49  3.35337    4.77  0.14173  -19.94  0.48890   82.34
1020.000000  0.04406   74.32  0.98574  170.63 88.44351  -92.75  0.04158   85.88
1040.000000  0.18545   93.05  1.12390 -118.65  2.40537   56.88  0.38436  101.23
1060.000000  0.38192  -81.12  2.15599   90.10  0.16516  -74.33  0.03935  -97.87
1080.000000  0.07091  164.00  0.77177  136.11  0.40164  151.06  0.09309  169.03
1100.000000  0.08649  149.64 127.69445   66.21  0.81572  -57.48  0.06369  143.75
1120.000000  1.02156 -100.74  0.56121  -67.32  0.23012   21.88  1.24454  166.99
1140.000000  1.31222   59.27  0.82383   61.73  0.36054   67.48  0.74206  163.75
1160.000000  0.29038   87.90  0.85298  -23.75  2.47473  -10.50  0.29190   78.32
1180.000000  2.43129  131.13  0.25636  -54.48  2.88370   18.25  0.97438   86.91
1200.000000  1.05271   97.86  0.70108 -146.28  3.73978  -81.26  1.55889   96.51
1220.000000  0.30961   70.64  2.83101    3.29  0.83687   55.48  0.24367   57.02
1240.000000  7.42333  143.69  1.90637  -82.30  3.03021  -75.47  1.71632  -68.10
1260.000000  0.40570 -148.43  0.94092 -145.66  0.39046   56.99  1.67487  -99.03
1280.000000  0.56875  -56.46  0.99889   39.10  0.61912  118.98  0.79634  -76.42
1300.000000  2.31065 -123.32  0.70797  -34.47  3.71663 -150.36  3.35258  -72.30
1320.000000  0.98623  118.02  0.86456  131.18  0.64724 -103.12  0.92013  115.64
1340.000000  1.19646  -23.18  0.86926  -68.06  0.94767 -118.06  0.50635   62.02
1360.000000  0.20824  -92.56  0.89284  105.39  1.25442 -113.68  0.22880 -110.20
1380.000000  0.63551  139.12  1.10102    0.98  1.12765 -117.63  0.73663  115.91
1400.000000  0.71741  -93.01  1.13554  -18.36  0.52381 -113.78  0.77639 -127.12
1420.000000  0.16316   96.03  1.58105 -157.44  0.61623   28.71  0.24292  117.53
1440.000000  1.02531   63.73  0.52589 -153.96  1.48543  100.25  0.75426   57.78
1460.000000  0.82904   78.75 218.46982 -126.50  3.18196  113.02  0.80378   75.16
1480.000000  0.51514  -78.30  1.40057 -114.73  3.91166   52.34  0.28536  -82.95
1500.000000  1.04754  -71.04  1.29207  -72.24  8.81296 -155.54  1.21261  -86.68
1520.000000  0.44383   37.57  0.79024   23.17  1.47127  -95.74  1.49673   69.98
1540.000000  0.33119  -95.68  1.55962   60.69  0.65622   89.97  0.53636  -73.16
1560.000000  0.78171   71.85  0.56246 -157.13  1.95878  170.20  1.11460   69.64
1580.000000  0.72778  -81.63  2.07825   78.29  1.07161  -63.74  1.21189  -79.49
1600.000000  0.65944  -88.12  2.02237 -148.44  0.83110  -18.02  1.96151   28.06
1620.000000  4.88884  172.10  0.59706  146.39  1.18770  -82.40  0.39460  115.48
1640.000000  1.87688  118.76  5.89011 -116.27  0.73751  -84.92  2.82986  101.65
1660.000000  0.67651  172.95  0.53923  -28.26  2.79197  -85.36  0.85700 -109.83
1680.000000  0.54799   77.45  0.92746  -88.34  0.94327 -155.21  0.84593  144.77
1700.000000  0.15563   85.00  1.68334  141.95 344.52365  -64.92  0.22724  113.23
1720.000000  0.62692   35.16  0.42926  170.47  4.49713  -73.06  8.66505   55.63
1740.000000  0.43885  101.03  1.06110  -37.64  0.90044  -73.48  0.63917  144.99
1760.000000  0.54946 -127.95  1.40813  175.10  0.62397 -155.91  0.67153   72.70
1780.000000  6.55375  165.89  1.87884  -26.12  0.70758   30.13  0.10691    6.52
1800.000000  0.73881   71.97  4.29380  122.05 359.68500 -150.42  0.96511   69.33
1820.000000  0.71194  101.40  1.56924  153.03 226.16981   57.92  0.39565   67.65
1840.000000  1.06233  168.78  1.62747 -148.04  0.42738  -25.12  0.53706    4.44
1860.000000  0.91027  158.73  0.77957  174.27  0.56727   -5.64  0.81457  -78.96
1880.000000  0.61105 -127.51  1.61703  -17.96 10.41329   39.02  1.03886 -103.81
1900.000000  1.94082  105.45  2.35933   64.62  1.39422  -89.74  1.64733  154.17
1920.000000  0.63119 -146.22  0.83952  -66.35  1.03205  -34.35  0.26213  -78.08
1940.000000  0.18301  175.76  0.92707  -65.28  1.19474  -35.65  0.50630  142.99
1960.000000  0.84212   78.24  1.64012 -121.59  3.18809   -8.76  2.24547  116.33
1980.000000  1.19101 -102.44 443.24831   80.95 49.70513  -99.31  1.22905 -101.23
2000.000000  0.69629  114.85  2.98672 -125.76  2.24451   53.67  1.16083  132.75
2020.000000  2.79309 -101.42  7.33654  -51.83  2.00562  -98.65  1.59763  -45.30
2040.000000  0.37433   32.64  2.14032  -74.56  3.28257   53.92  0.70168   95.28
2060.000000  2.68945  -50.22 10.19607  -64.74  3.59327  144.02  1.96261 -142.94
2080.000000  1.76267  -16.94  4.64806 -102.15  5.37159  -73.71  4.97302   15.78
2100.000000  0.48355  119.45  0.75156 -122.45  2.35716 -170.47  0.25394   47.37
2120.000000  0.86297  -60.39  6.43326   35.48  5.62883   24.68  0.65552  -61.87
2140.000000  0.75408  -51.47  4.11339   91.35  3.62422   75.75  1.11364  -65.32
2160.000000  1.15950   80.08  5.65851   98.06  2.65818  -58.55  0.67658   82.80
2180.000000  2.48156   66.25  8.08508  -14.93  5.59028   23.96  1.49716   22.48
2200.000000  0.33588  117.34  1.65994  -51.83  1.15243  -32.27  1.67857   57.87
2220.000000  1.78773 -120.20  4.02803   30.20  3.48229  105.54  0.93614  -98.04
2240.000000  0.32892 -123.77 12.11184   42.85  5.82516 -152.61  0.21681 -124.92
2260.000000  5.58563  168.44  4.28098  -73.94  1.92510  111.84  1.39727 -172.70
2280.000000  0.73792   96.67 10.40442   93.65  2.20326  153.60  1.03777   88.36
2300.000000  0.12074 -124.48  1.55207  151.04  1.97604  -30.07  0.08805  -78.51
2320.000000  1.07848   79.24  6.09862   78.21  3.59173   35.12  0.75294   55.13
2340.000000  1.13151   65.62 17.12241  -81.94  3.12994  -83.96  0.61188   59.73
2360.000000  1.36657   56.28  4.12842 -170.36  2.50319  -70.18  0.94013   25.08
2380.000000  0.95050   76.14 15.06174   81.61  8.78301  130.36  2.53566   91.94
2400.000000  1.86949    5.57  1.77659  -39.13  8.13480  128.10  1.53366   44.97
2420.000000  1.95891   44.25  5.43559   -1.50 41.31139 -121.62  1.26618   57.14
2440.000000  0.14295 -101.01  3.31715  100.68  3.25398  124.81  0.22148  -56.88
2460.000000  0.54725  123.21  1.63910   43.89  3.03819   60.98  0.96918  106.06
2480.000000  0.18692 -144.31  4.26046  -33.98  5.12142  130.68  0.25623 -134.56
2500.000000  0.29591  157.66  2.51770  -65.34  6.87467  -24.56  0.35839 -175.92
2520.000000  0.06782 -100.43  2.89666   -2.54  4.19130  -31.34  0.53717  144.34
2540.000000  0.26553  157.92  6.01965   41.34  2.82241   38.24  0.23328  165.59
2560.000000  1.39607 -168.72  2.09256  -25.57  3.30387  144.56  1.73626  168.99
2580.000000  0.33818  110.51  4.22485  119.01  4.54205  -46.24  0.43588   75.27
2600.000000  0.63953   90.29 13.90760  165.70  6.42030  -26.59  0.81740  112.38
2620.000000  1.76802  150.81  3.30814 -160.05  3.57317 -141.31  6.24779  143.37
2640.000000  0.79273   43.35  3.31633  160.98 11.15878  161.02  0.86182   35.42
2660.000000  0.45091  -30.70  5.10490  -95.76  1.81339 -112.41  0.13374   10.17
2680.000000  0.20796    4.71 535.82424   57.77  4.40959  157.88  0.12101  -12.95
2700.000000  0.63982  101.30  7.94151  134.87  7.78787   99.99  0.63087   66.77
2720.000000  0.43321   64.78  1.81165 -164.48  1.46919 -168.14  0.93937 -148.65
2740.000000  2.10471   89.49  3.12397  -76.74  5.93447  -49.62  4.28117    1.64
2760.000000  1.30744 -168.97  2.11239   52.57 512.10963  113.15  1.22940  176.58
2780.000000  0.47461   98.26  3.61378  -39.06  5.15021  -81.97  0.74001  113.92
2800.000000  1.37679  174.56  2.70223  -22.53  4.40607  -58.28  2.72771  161.14
2820.000000  0.56947  172.71  2.17685  -37.25  1.99012  -59.97  1.85745  -10.82
2840.000000  1.64157    0.29  1.56145   71.07  9.53920   32.08  2.73238  -15.70
2860.000000  2.06005  163.53  2.30281 -110.86  2.48746 -147.27  1.26034  146.82
2880.000000  0.15492   56.85  4.00494   50.38  6.30643   61.14  0.20695   56.20
2900.000000  1.14352   42.90  4.51044 -117.20  2.86605 -134.91  1.41988   80.47
2920.000000  0.29598  -15.39  4.15376  160.05  3.89872  130.47  0.81853   -5.59
2940.000000  0.82019    3.94 23.04281  -17.40 63.25961   44.43  0.81151    3.12
2960.000000  0.32818   41.62  8.03317   10.35  4.53566  -12.36  0.50277   48.15
2980.000000  1.92778  103.99  9.44968  172.93 817.72785  -99.51  1.40978   85.88
3000.000000  1.44937  -50.91  2.35214  -90.71  4.40937  100.49  1.55545 -122.48
