# MHz S MA R 50
!   freq        S11              S21              S12              S22       
1000.000000  0.33223  114.67  1.62855 -172.11  0.44422 -174.86  0.55629   44.54
1020.000000  0.04179   85.75 181.88879  -97.31 65.19251  -91.01  0.04202   86.14
1040.000000  0.34773   95.16  6.73694 -119.05  0.84399 -114.40  0.26078  114.31
1060.000000  0.54092 -124.37  0.13619  -64.65  0.48264  -86.01  0.84269  -57.28
1080.000000  0.06866  160.83  4.49100  106.84  3.43068  -91.75  0.08717  155.28
1100.000000  0.08805  102.99  0.28866  -41.24  1.68406  -54.94  0.08310  146.14
1120.000000  0.07411  125.04  0.17182  -92.27 70.91403  148.19  0.88775  -96.67
1140.000000  0.54683   61.14  0.55178 -165.62  0.56986   91.29  0.79845   84.30
1160.000000  0.15779   70.93  0.39374  166.23 67.13190  -40.92  0.29354   81.95
1180.000000  0.80509  106.76  1.15241   -9.28  0.64550   83.81  1.34904   94.00
1200.000000  1.30971   80.40  1.75665  -18.28  6.86434  124.13  0.84022   78.17
1220.000000  0.31750   65.05  1.56856  126.26  0.58850   93.94  0.35850   85.89
1240.000000  1.76790  -44.34  0.72636  -65.00  0.26972  -16.33  1.13096  -12.50
1260.000000  0.68946  -93.69  2.99562 -140.78  0.37073   -2.45  0.57366  -41.50
1280.000000  0.43820 -175.79  0.86813 -147.01  0.49274  -30.29  1.01595  -49.81
1300.000000  2.21449  -91.84  3.79226 -166.11  1.57435  -18.95  1.64004  -70.89
1320.000000  1.10994  114.53  0.58664 -120.13  0.75364   76.42  1.01178   93.67
1340.000000  0.34724  118.23  0.65093  127.26  3.50110 -118.36  0.43467  105.46
1360.000000  0.25317 -119.36  1.94564 -174.19  5.04551  162.24  0.18142 -146.85
1380.000000  2.40100  118.39  1.08050  160.84  1.43042   47.88  1.14399   75.91
1400.000000  1.18967  -96.99  3.64978  164.08 10.19775 -147.34  0.90557  -96.30
1420.000000  0.18430   89.80  1.07351 -125.14  1.58487  -70.30  0.17869   90.09
1440.000000  0.86015   47.40  1.06495  -62.83  1.32149   35.78  0.61090   85.49
1460.000000  0.92653   84.58  5.43832 -149.71  1.59361  -82.74  0.98175   76.08
1480.000000  0.27562  -50.33  0.66450  -86.85  3.41162 -103.50  0.30944  -70.71
1500.000000  0.92490  -57.08  0.73266   -6.60  0.45916  -69.92  2.99203  -15.80
1520.000000  0.61818   66.47  1.26203   85.19  1.77496    4.11  1.41709   95.68
1540.000000  0.79272  -69.38  7.79269  -39.76  1.82556  -56.75  0.98957  -72.14
1560.000000  1.27547   93.22  1.50829   90.64  1.31963 -111.17  1.13453   67.50
1580.000000  0.30112  -77.00  0.49010  -94.97  1.30514  -95.44  0.78876  -98.73
1600.000000  0.27104  -58.57  0.99054  165.26  0.72315 -159.44  0.40781  -98.19
1620.000000  0.41333   41.12  0.50070  -68.06  4.62744   -9.08  0.99052   90.77
1640.000000  1.09478  116.71  3.31944  155.97  2.62512 -164.47  1.10478  129.76
1660.000000  0.48043  -96.73  0.82295  -70.87  0.55311  -97.70  1.17965   40.39
1680.000000  0.86448   72.56  2.37204   75.27  5.67454  174.58  0.71829   74.32
1700.000000  0.22793  112.68 229.70809   46.90  0.78405   61.41  0.59334   66.77
1720.000000  8.85820  -98.35 245.20393   77.33  0.62342  160.65  0.71808  -90.94
1740.000000  0.40654   98.86  1.84149  138.42  3.77141  108.60  1.26902  103.39
1760.000000  0.32377  -98.51  0.95235 -127.90  2.19083  143.95  1.98787   14.00
1780.000000  1.23485  148.15  3.11120   44.64  2.04953  -10.79  4.79962  179.12
1800.000000  1.21764   76.48  3.10984 -133.52  8.09338  -62.67  1.07757   63.05
1820.000000  0.18131   33.11  2.94685  -53.05  1.01476  145.99  0.26590   82.52
1840.000000  1.62503  -15.99  1.46973    7.04  1.15690  -60.39  0.43149   96.68
1860.000000  3.31121   75.01  2.22527  -45.49  8.09756 -172.59  1.09602   71.41
1880.000000  0.91672  -98.56 27.52472  -78.78 216.90787  -89.61  0.91760  -96.20
1900.000000  0.82122  174.68  6.76603   49.43  0.66320  110.94  0.20329  -19.15
1920.000000  0.56413 -100.48  0.86168  -73.99  2.45060  132.95  0.73802 -109.65
1940.000000  4.18490   87.96  0.95427  -73.10  2.82894  -78.34  0.17655  104.42
1960.000000  0.85659  118.06  1.42755 -161.84  1.93433   52.98  1.70480  120.11
1980.000000  0.88163 -135.38  1.06386   65.47  3.83151 -158.24  1.31635  -78.42
2000.000000  1.00661   82.87  2.46542  -70.28  4.68753   48.57  0.85125  125.68
2020.000000  1.25288 -111.18  4.56666  159.62  1.37017  -41.33  0.98801 -102.86
2040.000000  1.61087   15.49  2.25435  147.61  8.71757  -74.21  0.96121   90.61
2060.000000  1.92669  -61.33  9.53828  126.14  0.91255  -45.31  0.77215  -49.00
2080.000000  5.63141   59.28 22.77290  -66.27  1.52680   80.07  1.18702  -16.38
2100.000000  0.59527   56.93  2.38202 -166.52  3.74873   51.64  1.10090   96.09
2120.000000  1.00096    0.62  1.65286    1.99  3.37223    9.04  0.68349  -52.31
2140.000000  0.40270  -44.57  1.45016   84.54  1.64670   95.38  0.51523  -81.86
2160.000000  1.04702   83.33  5.72637   94.17  1.33859  125.79  0.23492    4.06
2180.000000  3.33008   82.97 379.15674  -23.29  1.43275   17.52  1.23914   21.33
2200.000000  0.94298   97.10 387.37132  -88.70  1.44982  175.04  0.30112  179.92
2220.000000  1.17878 -120.44 743.32483  -49.23 511.97936  -29.81  1.17771 -120.39
2240.000000  0.22915 -117.92  3.13586 -117.74  2.05101   79.49  0.20270 -110.89
2260.000000  1.65262 -166.42 12.53218   99.37  5.60272 -138.44  1.94317 -140.96
2280.000000  0.79774  107.71 26.58516  157.19 27.77979  108.12  0.85710  104.82
2300.000000  0.30588  -55.38  8.88696   -5.02  4.50608  -64.16  0.27238  -79.53
2320.000000  1.12680   62.74  5.91858   69.72  1.33591   77.97  0.43592   73.19
2340.000000  0.25243  -84.42  5.02962   19.35 12.77809  -73.38  1.39627   96.71
2360.000000  0.62722   62.01  3.66494   -3.31  3.66340  -28.16  0.72575  101.06
2380.000000  0.98193   81.30  8.01565  149.39 16.39985 -107.59  1.03921   84.05
2400.000000  1.81635   68.39  3.92625  -12.43  2.03833  -53.49  1.25576   83.28
2420.000000  1.39855   64.42 11.16265 -139.31 12.97055   72.59  1.43834   54.11
2440.000000  0.35366 -136.07  1.98904  134.17  2.06358  156.56  0.13372  -69.10
2460.000000  0.30789   52.15  1.90495  119.81  2.48565  -90.97  0.50653  144.33
2480.000000  0.24248 -159.03  3.73659 -130.13 17.50614 -172.83  0.28855 -118.31
2500.000000  0.45111  165.66  4.40500  135.04 17.25176  124.95  0.41099  155.88
2520.000000  0.45304  140.18  2.97686 -176.34  6.80404  138.95  0.70569   67.82
2540.000000  0.11668 -163.21  1.46272   77.49  3.51092 -171.10  0.22057  174.01
2560.000000 11.98958  150.63  4.00277   -8.19  1.78020 -178.24  0.43296  -68.15
2580.000000  0.33934   79.52  2.49470  -68.19 12.49429  101.90  0.46087   95.60
2600.000000  1.13072   82.09  6.55033  -19.31  2.51264  113.46  0.37454  -45.51
2620.000000  2.17866   24.09  3.97632  170.81  6.64748   32.23  2.49860   59.23
2640.000000  1.06372   19.73  4.00416    8.30 464.39424  -99.84  0.89313   31.34
2660.000000  0.06412  -24.04  0.92188 -127.33  1.27096 -136.58  0.18554  -33.85
2680.000000  0.08337   52.54  2.39325  147.27  3.84832  160.78  0.13311    3.67
2700.000000  1.33316   60.30  4.71110  -99.60  9.32294  153.56  0.67948   82.86
2720.000000  0.91791  -18.36  1.65403  -98.27 611.35862  164.30  1.22180   61.55
2740.000000 20.18951   58.28 10.45485   60.80  4.10516  120.51  2.87185   81.38
2760.000000  1.22503 -176.89  5.47432 -161.31 33.55417 -139.58  1.21133  175.84
2780.000000  0.49205  126.16 38.34197  -79.88  1.66509  -56.95  0.25956  107.41
2800.000000  1.26464  154.58 11.32994  -37.26  5.18138  162.95  1.30409  132.75
2820.000000  0.39273 -107.41  2.52365  -29.31  4.18403  -56.63  0.48584  167.21
2840.000000  3.25043  -35.84  9.28655 -143.77  2.22853 -162.99  1.96024  -11.68
2860.000000  1.13880  125.75 20.28931   85.18  4.69667 -138.10  1.32761   46.71
2880.000000  0.16487   43.61  2.78620   90.32  4.76945   61.88  0.20012   77.40
2900.000000  1.54376   58.09  4.42014 -143.98  4.21645   55.27  1.15439   51.34
2920.000000  0.58144  -32.80  9.30505  151.74  5.59860  112.17  0.39892  -16.54
2940.000000  0.81737    3.47 56.74095 -137.47  3.17821   -7.59  0.76586    1.46
2960.000000  0.25086   79.19  2.73990  155.61  2.98922  148.72  0.24631   35.31
2980.000000  1.37712   85.35 90.69767  -29.22 21.18631  -35.10  1.55308   77.79
3000.000000  0.45821  -34.24  2.82180  -69.92  6.76654  -99.44  1.46440  -70.95
