# MHz S MA R 50
!   freq        S11              S21              S12              S22       
1000.000000  0.51460  139.22  0.32717    6.47  2.21113 -174.53  0.73384  101.97
1020.000000  0.01686  124.68  1.10577  174.01  1.08181  171.59  0.02488   81.60
1040.000000  0.22540   75.89  0.86487   64.21  0.16223   49.34  0.04185  -26.82
1060.000000  0.52562  -78.03  0.19827 -118.29  0.09566   -2.70  0.82450 -122.58
1080.000000  0.08697  169.99  0.16625 -176.71  2.06138  105.20  0.07453  160.95
1100.000000  0.09669  125.16  0.91920  -35.89  0.38181  -43.60  0.04061    3.25
1120.000000  1.11071  -72.92  1.19346   28.31  0.89250   30.56  0.69335  -71.94
1140.000000  0.55881   50.42  1.11280   38.51  0.10693  100.58  0.52148  132.41
1160.000000  0.16426    7.40  0.29918   27.05 78.20781   79.25  0.29420   82.04
1180.000000  0.94206   90.17  2.44223   17.69  1.45947  -22.37  0.95312   78.50
1200.000000  1.21228   79.72  8.66051  -75.92  1.87959   95.64  1.03684   91.82
1220.000000  0.14003   57.25  1.22696 -163.05  0.15401  100.15  0.54497  103.74
1240.000000  5.36893  -94.40  1.01659   76.22  1.12854  105.09  1.02676  -69.62
1260.000000  0.68345  -66.22  1.50789    8.08  0.90480  -66.01  0.87346  -79.98
1280.000000  0.98500  -77.29  2.70923   88.71  1.26511 -133.74  0.72630  -83.70
1300.000000  1.61086   51.94  0.75986  -18.94  0.83027  141.10  1.44055  -67.10
1320.000000  1.17528   88.68  5.93338   96.46  0.60975   26.28  1.50030   85.47
1340.000000  0.43148  102.99 77.77446  -95.31  3.24088  -61.73  0.42985   96.25
1360.000000  0.35827 -144.34  1.81501  137.48  1.07321  -64.06  0.26887 -129.46
1380.000000  7.66059  -71.45  0.34772  153.78 141.78079   -9.91  1.00922  106.16
1400.000000  1.07787 -114.21  1.93358  139.97  1.25199  163.41  1.28256 -144.81
1420.000000  0.13981   95.00  2.27301 -170.02  1.77266   10.33  0.14755   89.15
1440.000000  0.82386   35.08  1.89483  118.20  0.32147 -103.84  0.87727   35.10
1460.000000  0.27303   37.81  0.78243  -72.72  0.59072   68.48  2.04351   70.92
1480.000000  0.32894  -79.42  6.12650 -146.59  1.67874   28.42  0.17163  -77.13
1500.000000  1.18431  -81.37 124.97627 -125.86  0.70842  -57.89  0.61729  -70.41
1520.000000  1.06698   70.01 175.69989  -87.37 281.24750  -91.65  1.05417   69.80
1540.000000  0.51196  -61.18  0.94171  106.21  4.37471   48.73  0.66204  -82.78
1560.000000  1.41745   92.22  6.39909   -1.61  1.56432  -68.87  1.03651   69.06
1580.000000  0.29663   50.53  1.53475  -23.58 11.80720 -160.17  0.92880  -81.50
1600.000000  0.39507  -87.40  1.13332  -92.74  1.20894  -88.64  0.34878  -96.29
1620.000000  0.99347   99.85  3.73624 -153.18  2.02424  -87.52  0.73070   90.80
1640.000000  0.50812 -129.88  1.21121  156.75  0.72871  123.61  0.23901   84.96
1660.000000  0.62051  -90.95  1.96184  -88.87  0.88579  -82.84  0.48301 -101.22
1680.000000  1.53793   72.36  1.24799 -141.92  1.60420 -163.83  0.62375   91.29
1700.000000  0.20285  123.28  3.50083  145.89  0.51861   62.06  0.22629   56.12
1720.000000  9.14256  -99.52 103.98220   78.35 287.53116  171.71  8.89606  -98.39
1740.000000  0.76484   81.57  3.59829   -9.92 16.18309   28.90  0.82951   88.17
1760.000000  0.52834  -81.90  1.02391   48.01  3.07688  166.92  0.93636 -108.52
1780.000000  1.68022   31.69  1.40016    9.35  1.01361  171.21  0.99103  -12.04
1800.000000  0.99636   89.57  2.81568 -121.25  1.50840  -84.46  1.54036   61.31
1820.000000  0.50044   73.33  1.53211  132.17  1.11497 -111.04  0.24292   62.89
1840.000000  1.64713  -76.66  8.28937 -129.13  1.56981   22.13  4.48212  107.95
1860.000000  2.09187   80.75  3.34460  -21.61  1.38910   59.17  1.41727 -127.92
1880.000000  1.18557  -82.25  3.16870  -18.09  2.27414 -145.90  1.90711 -120.03
1900.000000  1.53120 -146.49  1.06119  151.61  2.10025   52.41  0.81715  -36.17
1920.000000  0.50491  -79.75  2.31328  -28.06  4.19417  -32.83  1.04133 -110.44
1940.000000  0.36150  120.20  3.85390  -27.16  1.20084  -34.50  0.41680  157.13
1960.000000  1.15806  131.96  2.67717   58.03  2.81530  -17.79  2.21988  113.31
1980.000000  1.17646 -100.37 11.59887  165.19  3.91032   47.02  1.13006 -109.15
2000.000000  0.68136 -103.32  0.61213   57.08  2.21941   54.97  0.89600  127.43
2020.000000  2.83174  -44.57  4.34510  119.60  1.15498  -70.49  1.19057 -175.38
2040.000000  1.49067   53.05  3.28677   53.52 239.53458   -6.03  0.89054   80.43
2060.000000  1.78097  -72.97  4.72751  -14.17  4.17195 -156.20  1.51653  -82.03
2080.000000  0.72607   17.11  1.27375   97.23  0.66492   86.23  0.31655   73.44
2100.000000  1.18589   52.96  3.41985   75.77  0.96573 -126.62  1.75343  156.32
2120.000000  0.66976  -46.90  2.11997   17.72  3.27686  -13.68  0.47207  -31.46
2140.000000  0.95931  -53.74  3.25651   99.36  2.09332   69.04  0.63035  -91.91
2160.000000  0.97997   86.47 26.90206   76.77  4.72333  -32.48  0.80996   87.89
2180.000000  2.30706    7.42  1.89339   76.47  1.62872   -0.84  1.12118   84.34
2200.000000  1.16547  156.07  1.12648  -16.03  2.05421 -174.92  0.29697  107.84
2220.000000  1.08633 -115.66  3.64598   35.72  2.81419  100.64  0.49438   15.63
2240.000000  0.32824 -142.02  6.75684 -119.78  4.06041   42.05  0.25172 -138.42
2260.000000  1.78070 -170.93  3.41369 -131.75  3.07312  -93.66  1.58173 -155.69
2280.000000  0.62069  118.79  6.66411  103.85  2.69551  -65.05  0.56804   97.23
2300.000000  0.28328  -84.34 24.59620  -79.08  5.00780  166.53  0.22065  -98.49
2320.000000  1.51212   92.27  4.57338 -100.43  0.98451   72.06  0.60043   36.65
2340.000000  4.22752   39.81  1.81570 -132.53 18.97710   24.10  1.15219   69.11
2360.000000  0.90761   77.68  6.17244  -59.65  2.89561  -29.23  0.71984   77.72
2380.000000  1.20450   71.35  9.00563  -51.26  5.45969 -107.01  1.24358   66.95
2400.000000  1.70412   56.07 17.27159  -60.27  4.96887  -25.24  1.45857   61.21
2420.000000  0.80300   45.97  3.40633 -154.72  5.92939  164.02  0.74942   83.58
2440.000000  0.22289  -58.59  3.98070 -173.32  1.99564  100.54  0.12234 -113.44
2460.000000  0.31032  -82.35  1.81245   63.81  2.33116   60.69  0.88095 -164.18
2480.000000  0.26672 -126.55 10.38174 -150.60  2.68151 -161.22  0.31730  146.99
2500.000000  0.28678  176.26  3.37976  -85.82  3.02156  111.47  0.33406  150.92
2520.000000  0.61681  148.45  4.08038  154.95  3.88204  163.76  0.50945  131.64
2540.000000  0.28808  147.46  6.08219   37.10  4.72363   57.18  0.32132  144.81
2560.000000  3.45938 -172.59 12.58768  152.13  5.11680  -49.16 12.53606   18.13
2580.000000  0.50728   85.36 290.72914   13.74 101.02880  -73.76  0.51578   86.80
2600.000000  1.11429   67.72  2.37769  -43.24  6.38809  148.25  0.55979   78.02
2620.000000 10.73051  124.25  8.02890  168.60  4.41027 -160.16  8.31431  -35.25
2640.000000  0.84380   14.27  2.40668   29.78  2.79728   14.85  0.38999  -21.87
2660.000000  0.20431  -56.86  1.47173   74.53  3.95938  -91.11  0.33705  -10.79
2680.000000  0.25572   -0.30  5.30104  154.71  4.04916  150.86  0.17307  -23.45
2700.000000  0.25630  109.55  2.06488   93.37  1.58615  137.28  0.73644  118.63
2720.000000  1.48319   33.43  3.84530 -141.49  3.83195 -129.98  0.74278   61.10
2740.000000  0.81734  -29.46  2.17724  -66.06 524.77625 -139.54  5.60096   49.01
2760.000000  1.25471 -178.75  5.32072 -156.59  8.48840 -167.52  1.15137  176.40
2780.000000  0.44689  119.35  8.33126  126.32 10.25081  -81.29  0.53659  121.33
2800.000000  1.74272   73.50  2.55403  167.54  6.76017  -30.65  1.12990  145.60
2820.000000  0.45636  115.81  5.71562  -42.83  2.17329  142.99  0.37404  177.77
2840.000000  2.43462  -87.82  6.05168   42.42  4.94457   26.54  7.09347  163.04
2860.000000  1.08770  130.12 847.26680 -172.37  5.14993   85.41  1.67480  128.92
2880.000000  0.19663   66.71  5.81775   49.41  2.08025   80.15  0.24512   90.43
2900.000000  1.19323   54.13  7.40269   60.90 20.61303 -129.88  1.13477   57.84
2920.000000  0.43846  -30.32 21.74629  116.61 12.29854  -79.96  0.42403  -35.07
2940.000000  0.80701    3.46 24.18630  -27.44 11.49833 -161.27  0.79292    2.09
2960.000000  0.39783   32.97  5.79333  -40.76  4.26686  -38.08  0.51234   10.12
2980.000000  1.93713  160.85  2.74571  -47.39  3.85856   12.20  1.03457   66.69
3000.000000  2.42610  -60.63 18.67820 -105.38  3.67283   79.60  3.50054  -89.14
