# MHz S MA R 50
!   freq        S11              S21              S12              S22       
1000.000000  0.40955   57.79  0.95847    6.62  0.85569 -173.78  0.78338   67.02
1020.000000  0.04779   81.94  3.23240  172.12  1.84252   -3.10  0.03371   89.58
1040.000000  0.33491  105.44  1.18005   49.27  0.18981 -111.10  0.50836   67.78
1060.000000  0.51266  -77.06  1.47577   93.23  1.49233   83.54  0.76581 -101.82
1080.000000  0.16969  141.67  0.11337  156.50  0.26683  121.93  0.19914  114.29
1100.000000  0.07241 -177.92  0.21838  -89.37 25.52819  160.75  0.08738  149.66
1120.000000  0.98255  -74.86  1.92629   30.85 265.30310  132.76  0.90560  -96.33
1140.000000  0.80328   99.20  0.25092  122.87  0.48845   40.31  0.50889  123.92
1160.000000  0.20958   62.05  0.12497   76.72  1.79488   29.73  0.38696   73.42
1180.000000  0.88623   93.23  5.94072  -11.23  1.63604 -158.51  0.84876   78.39
1200.000000  1.24881   78.09  2.59672  -49.43 12.84989  106.54  1.13835   88.79
1220.000000  0.32737   68.46 186.26505  117.10  4.35488 -166.54  0.30284   65.30
1240.000000  2.87715  -72.34  1.37011   51.29 232.82335   -0.07  2.11629  -77.24
1260.000000  1.39515  110.47  0.86631   10.39  0.45033   -5.58  0.22131 -159.84
1280.000000  0.90075  -85.29 16.55117   98.68 80.36221  -67.15  0.89565  -86.20
1300.000000  0.87130 -128.94  0.61647 -146.08  0.83622   21.07  1.38665  -59.07
1320.000000  1.11493  105.02  1.75275  147.98  1.04261  150.34  1.71080   85.60
1340.000000  0.26423   35.15  0.73626   60.07  1.86760  122.24  0.41461   92.45
1360.000000  0.17765 -112.86  0.33579 -124.88 148.20906  110.83  0.25757 -112.68
1380.000000  1.13721  103.20  1.33130   97.91  1.31058   55.11  1.24955   38.98
1400.000000  0.53226  -98.06  4.07423 -156.38  7.45864 -156.17  0.92418 -102.05
1420.000000  0.24518   78.04  2.41887 -167.26  1.15311 -145.74  0.14449   86.00
1440.000000  1.31538   82.35  3.93535  -63.19 320.48235   69.06  0.94371   86.35
1460.000000  0.54086   90.29  2.01186   22.21  1.10842 -109.82  0.71522   55.64
1480.000000  0.41704  -59.01  2.27135   20.17  4.29654  126.50  0.34146  -79.37
1500.000000  1.36224  -91.12  5.83176   81.92  3.98216  -76.38  0.87957  -78.39
1520.000000  0.44512   28.33  0.33109   36.59  2.89303  -43.57  1.23095   87.98
1540.000000  1.33756  -16.99  0.74771  -64.76  7.76411   51.35  0.71564  -83.53
1560.000000  1.26813   75.58  4.42766  115.36  0.70598 -165.98  0.98169   25.67
1580.000000  0.28631 -127.10  0.96650  -18.06  1.11914 -152.69  0.46859  -85.33
1600.000000  0.33922  -12.94  0.73824   -0.31  1.67488 -178.63  0.72035  -73.20
1620.000000  1.11634   91.97 209.08186  -79.93 145.01889  -97.87  1.13044   92.50
1640.000000  0.34326  120.27  0.68409  -28.60  0.92529  149.73  0.81532  120.81
1660.000000  0.91464  -66.01  1.53260   -9.73  1.05546   18.83  0.25200 -100.85
1680.000000  1.10618  100.08  7.83727  116.05  0.84151  -74.57  0.61854   71.06
1700.000000  0.22774  113.27 176.85766  -24.52  0.92572  135.33  0.14871  110.67
1720.000000  2.51114   82.34  0.85321  146.98  0.80555 -169.00  1.87332   88.68
1740.000000  1.04567   96.70  2.73983  138.66  2.80331  179.25  0.79433   97.86
1760.000000  1.52630   41.60  1.31287 -127.03  1.40195 -101.66  3.49739    4.70
1780.000000  0.54588  168.62  1.12789   78.81  0.98232  -40.98  0.51159   52.98
1800.000000  1.49455   59.03  1.41489   75.09  2.21866  -76.53  1.00239   44.30
1820.000000  0.46614   55.83  3.50117 -102.70  1.95781  107.04  0.46835   57.85
1840.000000  4.02635  -63.33  1.54141  -12.42  1.48568   -3.16  1.13599  -33.30
1860.000000  3.13804   36.49  1.23113  170.38  2.81711   44.45  1.61704   54.81
1880.000000  0.71690  -76.64  1.87439  -42.74  4.07613  131.90  0.79519  -81.90
1900.000000  2.22160 -176.94  1.37355  -83.46 269.65349   52.62  3.32919  110.59
1920.000000  0.74139 -134.62  1.42934  -53.38  0.70906 -107.73  0.77061 -167.72
1940.000000  0.19472  112.51  0.90270  -39.57  3.17794  126.92  0.26803  106.14
1960.000000  0.35415  124.88  0.46121   21.40  6.41027 -167.39  1.16587  102.11
1980.000000  1.08053 -113.16  3.74765   36.81 16.19314 -161.24  1.19359 -101.24
2000.000000  1.44328  133.09  4.06100   71.15  1.39384  124.28  0.57499  123.94
2020.000000  4.87949  -61.49  2.09017  -57.51  1.33224  153.95  0.50998  116.00
2040.000000  0.86025   30.73  1.55863  148.98  1.06493   65.70  1.40840  134.12
2060.000000  1.49869  -75.50  2.54738  -26.29  8.82786  -42.54  2.42640  -73.13
2080.000000  3.75188   54.91  9.62745   55.64  5.19910 -130.00  4.72214   65.38
2100.000000  0.90214   63.56  4.86745  172.16  2.40390 -170.62  1.03336   59.19
2120.000000  0.97926  -73.54  3.24396  176.99  1.12746  -34.39  1.44576  -99.38
2140.000000  0.69310  -24.83  1.84565    9.69 395.10852  -66.32  0.87642  -70.60
2160.000000  0.37972  111.59  1.21888  100.63  1.36142  150.07  0.87272   37.81
2180.000000  2.14994   84.37  6.24444 -118.86  1.08901   32.26  0.47865   -6.46
2200.000000  0.69391   85.91  2.47644    2.90  3.75358   20.57  0.61461   66.58
2220.000000  1.67036 -137.60  3.07087 -153.81  2.32422 -139.79  1.55469 -145.76
2240.000000  0.31211   39.03  2.86851 -150.30 15.56247 -152.51  0.33559 -117.37
2260.000000  2.23288  173.67  3.06573   76.08 23.87145  -88.47  2.51738 -155.80
2280.000000  0.74719  115.68  5.25016  -60.89  2.61230  160.54  0.64110  114.74
2300.000000  0.28983  -86.27 71.87481   77.40 20.56579  -45.13  0.30403  -86.09
2320.000000  0.87710   66.41  6.70003   95.94 14.55332 -131.32  1.10023   77.98
2340.000000  1.05298   67.71  6.19453 -115.67 16.28494   96.09  1.07655   78.48
2360.000000  0.77244   78.27  3.29717   -4.27  4.36286  -49.10  0.63984   56.41
2380.000000  1.13620   41.36  3.70599   95.46  9.94685  -87.77  1.85585  111.39
2400.000000  1.73244   36.99 17.09030  179.45 17.66085  121.44  1.46603   49.94
2420.000000  1.08797  160.85  2.67453  179.66  1.76484 -144.78  0.72432   65.14
2440.000000  0.16486  -84.60  6.28972  134.41 10.72560  -53.73  0.13505  -95.01
2460.000000  1.50708  123.42 318.15327   -1.50 328.86170  -55.40  1.50721  123.36
2480.000000  0.45240 -152.28  3.68237 -145.52  8.71346  -17.00  0.27288 -141.22
2500.000000  0.38540  164.19 10.19524  -24.54  2.86476  -96.82  0.23474  160.76
2520.000000  0.77576  127.86  5.99383  -25.78  2.09286 -168.61  0.43083  136.83
2540.000000  0.11072  126.61  2.06091   69.05  7.92745   52.02  0.29408  150.09
2560.000000  0.61685 -139.64  1.38284    0.96 12.16925  -11.40  2.68318 -100.35
2580.000000  0.60608   66.70  6.36200  -80.61  1.35570  142.17  1.12109 -171.07
2600.000000  0.25772   65.89  1.59523  147.56  5.54046  -10.06  1.18340   64.44
2620.000000  1.12737   12.80  2.79820 -136.84  9.11185  -18.63  2.48034   68.21
2640.000000  1.45462  -18.47  1.73655   19.17  3.56485   12.50  0.71803   21.71
2660.000000  0.41956  -25.43 14.96156 -132.56  3.79497  -96.99  0.59523  -14.38
2680.000000  0.05304  -53.39  2.51349 -174.39  3.68857   -8.59  0.30512   45.63
2700.000000  0.67826  105.49  2.53285  124.08 591.67017   65.91  1.14597   86.44
2720.000000  0.70625  -25.43  0.96080 -128.47  2.43190 -140.57  0.36905   22.05
2740.000000  1.80349   77.93  1.96372  -88.81  2.78551  -57.29  1.66989  145.93
2760.000000  1.00627  179.18  3.04312 -171.13 16.67434 -132.31  1.13853  176.97
2780.000000  0.43655  129.36 13.22353  163.28  4.40544  -66.94  0.53689  173.89
2800.000000  1.23382  116.59  6.53148  108.34 12.94304  -10.69  1.26930  151.91
2820.000000  0.38437  168.48  3.52940  130.13  4.81679  111.46  0.53759  133.26
2840.000000  2.39681  -42.35  5.64844   52.87 10.41657  -93.49  2.68436   -0.77
2860.000000  0.74438  140.68  2.67853  -96.13  3.63695 -122.20  2.04577 -152.07
2880.000000  0.32845   44.00  3.81830  -71.87  5.01724   51.42  0.55653   57.84
2900.000000  1.03183   63.74  3.94390 -141.93  3.72736 -173.66  0.90881   48.99
2920.000000  0.48137  -31.64 11.86261  -75.78 25.21907  160.80  0.42165  -26.58
2940.000000  0.83491    6.37  5.91608  160.00 821.91034  -69.89  0.81602    3.33
2960.000000  0.32361   35.79  6.56134   -0.45 25.37009 -164.66  0.36348   43.92
2980.000000  2.34905  114.99  7.73811  166.10  5.39288   11.01  1.08501   69.70
3000.000000  5.27240  -62.41  2.55750  107.18  8.03509  -77.62  2.69042  -61.60
