# MHz S MA R 50
!   freq        S11              S21              S12              S22       
1000.000000  1.85420  108.38  0.34161    1.98  0.51468 -175.16  0.19225  -16.19
1020.000000  0.02184   66.55  0.19914    1.24  0.89964  170.96  0.02980   94.99
1040.000000  0.31173   78.44  0.22781  -96.24  0.36722 -115.25  0.12087 -135.09
1060.000000  0.98082   -2.70  0.31551  -82.51  0.97832  -88.82  0.28795 -128.24
1080.000000  0.06626 -173.15  0.21922  -48.86 27.62902  156.81  0.08550  154.13
1100.000000  0.10815  152.58  0.81033   -9.54  1.15200  139.02  0.10934  155.59
1120.000000  0.70759  -92.03  0.50970  158.59  0.48074   -0.57  0.59847  -97.77
1140.000000  0.88336  123.17  2.01925 -165.33  0.62429   37.69  0.02313   33.16
1160.000000  0.28334   77.56  1.80874   49.48  0.17409   67.04  0.12923   95.12
1180.000000  1.19163   85.23  5.54979 -172.83  2.61794   -5.06  0.85944   69.20
1200.000000  1.09045   90.71  1.22997  -21.58  0.43068  135.45 71.74985  165.76
1220.000000  0.08725   16.66  0.54219  105.11  1.04304   18.72  0.33921   43.44
1240.000000  0.72773   20.71  0.55586   69.63 48.82144 -128.80  2.14018  -77.04
1260.000000  0.17208  -85.23  0.29809  -44.71  0.37495  153.78  0.41757 -112.86
1280.000000  0.57153 -114.19  0.55926   33.90  7.32934 -134.31  0.90886  -79.34
1300.000000  2.78142  -70.66  2.44958  122.31  2.61864 -165.06  7.96566 -165.23
1320.000000  2.21061  120.08  0.79167  151.36  0.17354 -169.96  1.27179 -111.38
1340.000000  0.42800  105.79  5.00327   26.38  1.05808  132.78  0.37549   92.34
1360.000000  0.47481 -149.21  1.61754  178.30  0.92575  174.55  0.27116  138.13
1380.000000  0.63727   84.15  0.50352  169.53  0.45054   84.51  0.66561  101.54
1400.000000  0.25312 -132.38  0.24073  -90.56  0.29331  -95.56  2.07959   49.16
1420.000000  0.21776   84.48  3.30344  147.95  0.73248   93.45  0.13031   81.06
1440.000000  0.94161   86.29 126.25760 -170.96 330.51116   59.41  0.93427   86.34
1460.000000  0.90911   48.38  0.60684  -89.76  1.42532  -17.85  1.42992 -123.82
1480.000000  0.20235  -33.91  0.76682   30.27  1.05278   37.93  0.39519  -69.84
1500.000000  1.18980  -76.17  3.44001  151.33  3.15234   78.11  1.37987  -90.19
1520.000000  1.61222   57.69  0.94877  -97.11  1.16131 -121.42  0.87141   60.76
1540.000000  0.11711   51.96  1.39970   58.88  0.77491  128.92  0.68784  -50.29
1560.000000  1.26407   64.60  2.07522 -164.34 254.12987   73.08  1.51885   74.84
1580.000000  0.65803  -58.76  0.73898 -113.15  1.23523  149.13  0.63664  -89.71
1600.000000  1.01992  -72.56  0.67363 -125.89  0.41942 -148.36  0.25055  -78.09
1620.000000  0.52355  157.23  1.71918   99.86  1.64522 -179.41  1.95024   93.63
1640.000000  0.66007   96.04  2.62335 -160.01  1.31911   95.47  0.69454  149.87
1660.000000  0.88133  -91.61 269.61852  172.84  1.70774  159.47  1.19660  -77.90
1680.000000  0.70410   90.74  2.34774 -131.34  1.72604 -169.54  1.03657  159.85
1700.000000  0.20778   88.15  1.25864  109.48  0.68386  138.07  0.13712   60.17
1720.000000  3.83630 -103.40  3.41514  -59.85  5.05478   43.77  4.34739  178.32
1740.000000  0.62902  -34.46  1.02365  113.94  0.58760 -173.31  0.30740  108.39
1760.000000  0.62314  -63.66  0.98640  148.17  1.54160   45.77  1.18322 -113.70
1780.000000  6.18685   36.64  1.98950   39.88  0.57131  -19.84  0.03793 -171.94
1800.000000  0.84057  120.36  1.09247  105.12  4.61924  -55.22  0.70066   64.72
1820.000000  0.35340   58.88  2.71519   65.63  2.93229  -11.57  0.30122   59.03
1840.000000  1.12784  -71.23  2.94099    7.16  1.04639 -139.11  0.18946 -128.21
1860.000000  4.84294  116.15  2.29516   49.61  1.62725  140.58  0.86663   21.71
1880.000000  1.04104 -107.32  3.21909   -7.49  2.73352  -65.92  0.46898  -78.51
1900.000000  3.28569  111.19 276.56402  -33.68  0.42193   95.57  0.81566   43.37
1920.000000  0.19176  -60.23  0.57087  -58.69  5.29922 -130.31  0.96004 -116.45
1940.000000  0.21634   42.21  0.70871  -38.73  0.88538  -10.98  0.07833   56.85
1960.000000  1.15641   98.35  4.93370  165.52  2.73732   80.84  2.76462  134.27
1980.000000  1.22305 -108.61 15.48975 -109.07  2.12849 -120.70  0.87174 -102.12
2000.000000  0.60517  144.97  1.02283   91.49 235.34277   -3.93  0.89993  102.09
2020.000000  1.47236  -38.48  1.31234  -42.96  2.18453  115.50  1.85471 -177.24
2040.000000  0.77804   97.64  2.38618 -102.79  2.34629   80.70  0.60412   75.16
2060.000000  6.07940  -67.97  3.01532  151.12  2.59023  -42.69  2.98526  -97.81
2080.000000  3.81751   36.56 254.46175   14.60  1.25225   88.13  1.39944   91.75
2100.000000  1.07875   77.68 285.27284  106.81 20.39151   64.50  1.17745   81.46
2120.000000  1.42146  -57.91  5.54807 -155.50 20.01858  -23.28  0.80624  -64.32
2140.000000  0.75527  -66.61  5.72474  -93.71  2.02386 -115.66  3.40468  121.82
2160.000000  0.95559   89.32 360.02610   22.06  2.59519  178.30  1.36561   49.58
2180.000000  2.46588   71.17  6.53286 -179.84 11.38990   44.00  3.36743   70.97
2200.000000  1.32576  117.69  3.04410  -70.97  1.60972   25.15  0.56524  103.16
2220.000000  1.18183 -120.24 346.41565  -39.65  5.82686 -120.88  1.05451 -102.52
2240.000000  0.32295 -124.59 23.33018 -151.20  1.24166   46.26  0.04662 -116.42
2260.000000  1.20062  139.79  1.40032   85.63 48.63255  -77.91  2.73133 -151.59
2280.000000  0.85104  135.16  2.57987   -3.58  4.95719 -178.67  0.57921  109.23
2300.000000  0.23486  -79.08  4.30426  135.20  5.18394  -41.35  0.28307  -77.25
2320.000000  1.08049   67.93 11.86639 -114.84  1.90163 -111.17  0.50813   73.97
2340.000000  1.34146   51.33  4.96262   28.08 11.13935   67.45  1.19321   54.69
2360.000000  0.93202   65.91 21.41942  -49.68  1.91501  -25.52  0.60898   59.90
2380.000000  1.23373   71.80 31.41702  -98.40  3.01219   87.06  6.31269 -117.53
2400.000000  1.95575   81.69  4.55856   17.96 515.42523 -112.43  1.50523   54.11
2420.000000  1.28511   55.52 17.76163 -131.10  2.78520 -114.82  0.77159   48.63
2440.000000  0.15155  -92.27  8.71931   11.69  8.44491  -18.90  0.15869  -73.60
2460.000000  1.00388  107.00  1.72980   69.83 10.69293  -88.74  1.69067  118.16
2480.000000  0.48718 -144.88  2.87957 -176.64  1.67280 -162.14  0.30823  -72.29
2500.000000  0.50804  160.68  2.74322  150.71 287.33638 -126.79  0.39142  161.23
2520.000000  0.57847  132.43  6.22310 -171.47  6.15641  -29.85  0.74268  119.96
2540.000000  0.14582  143.91  1.44037 -159.13  3.03932   34.65  0.16965  136.18
2560.000000  3.86611  147.45  3.41113   15.84 618.85200 -126.31  2.85296 -172.16
2580.000000  0.50474   80.79 14.03487  -41.46 13.38662  -92.33  0.47977   83.00
2600.000000  0.87081   87.40 28.15608   -4.01  2.05472  128.35  0.52143   44.60
2620.000000  5.51328   72.49 17.81125   35.54  3.37461 -168.34  1.07530 -129.57
2640.000000  0.88754   31.97 139.03382  168.25  1.87892   36.18  0.56250   42.47
2660.000000  0.86692 -167.75  1.89737 -135.89 16.47283   94.27  0.29155  -56.35
2680.000000  0.11945  -57.74  2.66679 -160.73  2.95069 -150.13  0.44222   26.25
2700.000000  1.25147  106.88  7.61297  -73.18  2.81769  165.90  0.65573  -21.97
2720.000000  1.50686  161.17  1.92870 -143.08  8.41440 -112.87  1.10217   79.71
2740.000000  3.36513   53.47  4.50320   72.58  4.47871  -88.06  7.31806  -29.54
2760.000000  1.46638  175.19  2.30350   45.52 333.19930   91.33  1.23105  176.63
2780.000000  0.16093  130.45  2.19921  -20.88  4.17657  -14.59  0.43179   77.88
2800.000000  1.17906  143.18 34.27254  -23.42 17.70692  -58.04  1.47728  127.51
2820.000000  0.37749 -166.70  1.92919  -46.06  4.82506  145.43  0.31528  176.11
2840.000000 20.61735  125.97  3.66311   38.12  6.15307   36.15  3.80266  -28.48
2860.000000  0.87997  135.66  5.43253 -156.84  5.01070   82.24  1.46963  126.66
2880.000000  0.20380  118.01  6.36682 -117.52  6.25583 -103.66  0.31244   46.77
2900.000000  0.97992   55.95  5.03751 -137.06  5.12876 -132.07  1.02664   63.72
2920.000000  0.72997  -29.04  2.47386  -67.81 10.62229  131.49  0.45783  -14.33
2940.000000  0.83048    2.47 11.66065 -159.27  2.32708   20.98  1.55868   -7.19
2960.000000  0.14061   -2.96  2.26123  161.76 766.66986   72.72  0.35772   40.59
2980.000000  1.95876  101.42  5.89472  -31.40  3.25335 -179.06  1.37075  102.37
3000.000000  1.93094  -57.57 16.20403 -111.96  6.09901  -74.98  1.97164  -55.62
