# MHz S MA R 50
!   freq        S11              S21              S12              S22       
1000.000000  0.59642   66.87  2.43829    5.90  0.91931 -173.75  0.73931   63.66
1020.000000  0.02718  104.56  1.49704   -5.15  0.77089  172.81  0.02224   76.60
1040.000000  0.22627   92.88  1.51349   67.70  5.67078   65.22  0.26998   99.15
1060.000000  0.41412  -81.91  0.23437 -116.27  1.95788  -96.99  0.53423  -82.96
1080.000000  0.08300  155.34 248.64697 -160.34 174.62722 -162.92  0.08333  155.90
1100.000000  0.09293  152.08  3.86208  -15.88  5.73351  -37.19  0.08054  168.34
1120.000000  1.05476  -86.82  0.71011 -110.75  0.30603 -112.77  2.33648 -136.32
1140.000000  0.94033  104.99  1.69518   37.04  2.14619 -135.40  1.57238   34.23
1160.000000  0.14603  107.89  0.52972 -134.76  2.46593 -175.06  0.09376  -50.66
1180.000000  0.53132   65.89  0.30818 -135.88  0.32035 -151.92  0.55865  119.67
1200.000000  0.38779  148.73  0.71172  -75.22  2.12633  -85.60  0.93018  108.49
1220.000000  0.24832   59.62  0.44526   -9.50  1.72212   57.73  0.32115   62.76
1240.000000  2.43553 -134.24  0.72455  -73.27  0.79029   57.72  1.46644  -28.24
1260.000000  0.74139  -77.61  2.26057   -8.61  0.53888  173.45  0.52736 -124.34
1280.000000  1.10295  -74.86  3.94002 -141.26  6.14867   87.24  0.80726  -91.21
1300.000000  3.14401  177.67  0.34803 -123.73  6.58396  -40.39  2.86904  -80.40
1320.000000  5.31795  126.05  0.47372 -132.14  1.70909   94.42  0.97865  145.96
1340.000000  0.71724  119.74  0.71638  -41.21  0.36143  -35.90  0.32029   62.83
1360.000000  0.27275 -103.09  1.12164  116.18  2.08902  128.02  0.19125 -140.05
1380.000000  0.27350  166.24  1.29472  171.58  2.73679 -172.21  0.59945  106.81
1400.000000  0.94313  -97.99 260.83818  119.69  0.65477 -143.64  0.26918 -165.17
1420.000000  0.21634   75.41  2.47158   10.15  2.21244  -42.83  0.18809   91.68
1440.000000  0.45327   96.24  2.25779  -20.63  0.95171  171.78  0.70247   84.24
1460.000000  0.82575   79.07 86.79570 -175.41  2.38449 -136.91  0.52135   65.71
1480.000000  0.42714  -89.44  1.95448 -156.35  0.29774   43.22  0.13184   65.62
1500.000000  1.01910  -70.33  1.72403  -29.84  6.53614   13.01  1.15332  -75.40
1520.000000  1.06114   69.68 104.38547  -43.65  1.23419   -5.51  0.59759  145.79
1540.000000  0.57790  -61.01  2.52200 -107.08  1.97255  -41.08  0.93696  -73.32
1560.000000  0.90587   44.97  0.97001 -145.97  4.14736 -112.51  1.47912   66.70
1580.000000  0.94815  -66.87  2.29473  -60.32  1.09545 -140.89  1.06705 -131.90
1600.000000  0.25316 -116.06  1.40235   -7.91  0.39224 -130.41  0.38328  -52.36
1620.000000  0.83476   91.89  2.11404   17.55  1.81794 -155.07  0.86518   71.42
1640.000000  0.60334  111.45  1.62612 -166.32  1.20523  157.69  1.59500  127.17
1660.000000  1.00106  -83.59  2.33384  147.41  2.11989   98.09  1.05851  -87.03
1680.000000  1.03691   66.26  1.48218  -81.15  1.39934   95.76  0.53017   70.55
1700.000000  0.46333  100.31  4.34591  -23.24  1.75747  146.03  0.17569   89.12
1720.000000  0.50280  127.97  0.84246 -156.95  1.49238  128.50  3.98359  -15.13
1740.000000  0.69655   85.65  2.59098  -14.58 11.78533 -140.10  0.82738   98.05
1760.000000  0.58248  -81.89  1.13785   -5.68  1.90234  173.54  0.88164  -75.81
1780.000000  1.29933   61.61  1.58115  -13.45  5.30803  -41.85  3.65819  102.41
1800.000000  0.96671   69.14 416.16392  107.07 190.25956  154.57  0.96601   69.30
1820.000000  0.34848   72.16  1.76851  -60.42  1.48066  102.44  0.62537   14.59
1840.000000  1.45296 -142.23  3.03533   -3.43  2.00937    8.52  1.47464  -20.30
1860.000000  3.70710  -89.90  1.33164   50.51  1.68736  -50.42  4.14902   43.37
1880.000000  0.92817  -90.96  7.00989  149.13  1.15975   13.47  0.77324 -150.34
1900.000000  3.24607  109.25 294.26889   67.65  4.32099  152.17  2.81764  149.35
1920.000000  0.66080  -91.76  2.39757  -53.61  1.81499  -89.29  1.15588 -150.66
1940.000000  0.18096   88.69  1.89179  -29.50  0.54476  -25.10  0.26832 -163.01
1960.000000  0.91254   97.73  2.87852   82.31  1.19716 -110.97  0.89815  113.65
1980.000000  0.52521  -76.87  2.00905 -167.35  3.97219   50.97  1.17084 -108.08
2000.000000  0.60806  103.44  5.19139 -139.56  6.76350   26.30  1.03192  111.16
2020.000000  2.31057 -112.54  8.22885  -49.44  1.04451  -42.68  4.35401   24.46
2040.000000  0.51125   74.14  1.51170  117.80  1.67623  133.84  0.39486   67.46
2060.000000  2.18077   90.30  2.30595   99.50  2.41132  -11.25  1.55774  -64.86
2080.000000  1.16008   17.80  1.17202  123.54 311.24826  -56.83  3.80803   37.21
2100.000000  0.68185  128.05  1.51179   28.31  2.61434   -5.96  0.99930   99.23
2120.000000  0.80227  -61.31 12.14893  -43.00  3.23920   -7.27  0.66191  -71.55
2140.000000  0.68941 -147.01  4.34909   15.86  3.48751 -106.38  0.86449  -57.15
2160.000000  0.62689   95.13  2.32458 -101.31  1.38834   86.77  1.05639  148.56
2180.000000  1.55147  131.36  1.47711 -148.73  8.83923   -1.92  5.91219   75.37
2200.000000  0.44395   44.59  2.07943  -43.39  6.42779  -47.66  0.67115   97.05
2220.000000  2.32068 -149.54  3.83045   49.85  2.87510 -150.73  1.17794 -133.73
2240.000000  0.56399  123.44  1.88823   -9.84 496.36757  -18.51  0.30734 -123.27
2260.000000 15.30441   18.36  2.78889   53.96  1.51145   89.18  1.30517 -127.00
2280.000000  0.54095  102.54  5.82029 -179.33  2.95494   -4.60  0.74930  122.44
2300.000000  0.27824  -87.42 31.89616  -10.69  1.98185  132.87  0.18020  -87.74
2320.000000  0.85980   78.25  7.04333  108.00  1.58999   70.29  0.61635   43.49
2340.000000  1.12107   71.36 28.40783   73.63  4.80518 -101.27  1.04096   40.17
2360.000000  1.84176   65.91 16.26453  -48.08  3.27163   23.54  0.59369 -111.34
2380.000000  1.94535  -21.70  2.39065  137.50 32.34051  -55.33  1.04780   73.97
2400.000000  2.30485   48.28  5.22754   13.92 17.89390 -174.73  1.37441   56.40
2420.000000  1.44387   55.28 11.53114   10.43  1.60796 -143.26  1.68327  152.84
2440.000000  0.15360  -82.09 587.30362   75.44  5.53172 -177.50  0.15731  -55.37
2460.000000  1.21689  133.97  3.34946  -55.69  2.81774  107.11  2.28542   96.89
2480.000000  0.17355 -122.33  5.66028  165.98 10.58661  -28.91  0.32045 -121.58
2500.000000  0.36518  158.34  9.15661  -73.11  5.98956  -71.91  0.39201 -175.10
2520.000000  0.28591  153.11  1.50767 -175.43  6.03356 -177.86  0.62392  145.18
2540.000000  0.27327  157.47  8.97541  -99.80  3.99529 -140.73  0.25204  164.33
2560.000000  1.98331  170.11  2.86621  135.94  1.65290   11.78  1.14479 -149.07
2580.000000  0.50613   85.25 405.85601  -12.62  1.90202  -74.94  0.36846   62.19
2600.000000  0.58186   96.43  2.15708  145.00  2.18020  136.70  0.51066   78.29
2620.000000  2.10494    4.54  2.70263   12.13  2.84685 -116.79  0.73912 -118.54
2640.000000  0.79535   27.78  8.06839   42.15  3.45305   12.69  0.68619   14.23
2660.000000  0.39036  -39.34  7.21286 -109.44 16.95918   97.19  0.37244  -23.88
2680.000000  0.24674   15.82  9.38133 -146.16  5.30529  -24.09  0.24095   31.18
2700.000000  1.12782  111.57  4.01607   95.31  3.77833  114.47  0.85258   45.72
2720.000000  0.99228   24.21  3.07254 -135.66  7.68712 -135.24  0.87966   52.31
2740.000000  0.49447 -137.66  3.65167 -105.29  3.91109  -87.28  5.00582  120.19
2760.000000  1.15363 -169.40  1.99269 -139.72  1.86062 -129.37  1.30773  168.93
2780.000000  0.41703  128.32  2.49251  147.55 18.70157  167.90  0.51179  123.43
2800.000000  1.15623  152.17 22.65569  -47.93 44.84748 -178.50  1.25125  141.81
2820.000000  0.31612  149.84  6.38303  -32.72  8.69190  136.84  0.25159  146.62
2840.000000  4.76560  -75.07  8.98568   45.84  9.59987   31.32  6.56307   21.28
2860.000000  1.04258  128.06 16.07671 -151.29  9.17461 -132.37  0.98450  125.59
2880.000000  0.19834   67.81  9.29277   69.43  2.87921  -85.46  0.37000   42.21
2900.000000  0.86446   80.62  1.58666 -161.80  5.57174    7.40  1.31612   58.23
2920.000000  0.33260  -21.41  4.11420  140.42 18.34057  150.58  0.42386  -24.70
2940.000000  0.82693    3.75 27.11053 -141.33 22.76823  167.87  0.80572    5.15
2960.000000  0.55822   36.90  3.76211  175.13  5.59948  167.58  0.35545   47.40
2980.000000  1.46121   77.40  9.16802  -21.90  2.95344  148.57  1.39804  104.45
3000.000000  2.10896  -54.58  5.71617  -77.41 45.87074  -95.12  2.19634  -69.90
