# MHz S MA R 50
!   freq        S11              S21              S12              S22       
1000.000000  0.83979   68.50  0.04581 -175.10  0.03357   51.21  0.57939 -157.37
1020.000000  0.02887   97.07  0.24381   -0.12  2.41531   -6.82  0.04137   76.73
1040.000000  0.23739   86.42  2.19118 -122.98  0.33271   52.01  0.06571  172.00
1060.000000  0.04412   24.61  1.19066  -86.56  1.11959   98.52  0.41529 -110.11
1080.000000  0.10673  146.53  1.21612  124.30  1.07930  -84.66  0.07084  158.12
1100.000000  0.07956  140.96  2.58505  160.68 104.29586   69.75  0.08667  149.84
1120.000000  0.88487 -114.61  1.68828   54.03  0.21630   -5.41  0.64994  -71.73
1140.000000  1.02367   91.13 33.57201   40.72  1.42855 -159.22  0.55705  106.97
1160.000000  0.20200   79.18  0.65501   72.10  2.49502 -153.75  0.32196   81.53
1180.000000  1.08453   78.33 161.89806   92.73  0.38350  133.36  1.39187   93.51
1200.000000  0.58239   41.24  4.85133  -57.40  0.87406 -119.03  1.74022   86.05
1220.000000  0.32612   68.05 67.75347   70.64  2.31407 -102.15  0.31739   62.53
1240.000000  1.74210  -75.98  2.59082  -72.85  0.26799  -65.55  1.01862  148.03
1260.000000  0.71885  -74.61  3.07362   59.64 140.24504  120.70  0.74499  -87.92
1280.000000  2.12291  -73.92  0.64702   38.39  2.54026 -161.36  0.82092  -87.56
1300.000000  2.37366  -72.84  9.77933   12.95  4.11700  166.78  3.91008 -111.58
1320.000000  1.53500  115.84  1.53925  138.58  0.50125   85.35  0.95428 -132.87
1340.000000  0.46474  109.13  2.90973   34.69  7.39025  -65.79  0.46461   98.92
1360.000000  0.25737 -112.84 364.64925  120.52  0.71537  173.84  0.23510  -65.58
1380.000000  0.91752  110.20  3.19542   -0.98  1.88759 -116.71  0.91525   96.99
1400.000000  0.43959  -84.04  0.97036 -120.86 244.25027  121.88  0.94371  -98.01
1420.000000  0.23414   75.46  0.87248  116.69 17.22604 -136.45  0.21225   94.83
1440.000000  0.85795   82.12  3.08853 -144.08 154.70221   87.59  0.92435   87.44
1460.000000  0.64237  125.28  0.43161 -114.46  1.14879  -22.24  0.96016  125.72
1480.000000  0.35215   -8.38  1.83894  153.14  0.32595 -102.24  0.10321  -72.88
1500.000000  0.75469  -69.05  0.75410   10.32  7.93034   73.14  1.43598  -69.21
1520.000000  0.86510   69.28  7.22520 -175.41 358.11583   35.35  1.06704   69.67
1540.000000  0.68702  -10.78  0.64059  134.44 197.79447  -18.62  0.82074  -71.81
1560.000000  1.56523   85.41  2.55265  -90.11  3.90430 -141.63  1.71432   80.07
1580.000000  0.78269 -132.68  1.07305  -37.29  7.05174 -146.88  0.93831  -84.49
1600.000000  1.85768 -125.61  0.66856 -113.46  2.94926  169.35  0.54763 -106.00
1620.000000  0.60445   93.69  1.37082   28.95  2.02371   39.67  2.69052   64.59
1640.000000  1.02803   53.62  1.14793  -98.87  0.77979  152.11  0.30676  126.57
1660.000000  0.82074  -88.10  9.28575  120.45  2.19237  162.69  0.74886 -123.69
1680.000000  0.76805   70.16  4.11750 -176.06 350.54450   98.26  0.99596   91.19
1700.000000  0.17761  103.63  1.44321  130.61 13.53848 -147.62  0.23097  107.30
1720.000000  3.66308  -37.85  3.55930 -152.42  1.66330  168.57  3.05626   -2.89
1740.000000  0.86085   98.39  2.64415  173.21  0.42824  161.20  0.36251  140.16
1760.000000  1.21135  -77.74 382.63864  156.76  3.90786   63.36  1.33337  -87.44
1780.000000  0.60904   94.34  2.58406  -39.67 193.13650  -57.37  2.66301   57.57
1800.000000  0.94799  101.02  3.24475  -76.83  2.25410    6.45  0.43862   90.01
1820.000000  0.22772   87.55  0.81973   84.58 12.51845   47.62  0.41898   74.83
1840.000000  1.22377  -36.99  1.31876  145.77 431.62013 -156.09  2.07862  -61.64
1860.000000  1.50136   73.62 140.90965  -88.48  0.97884  -37.42  4.08832  -98.89
1880.000000  0.41479  -45.70  0.90026  -40.84  7.30695  -76.31  0.78413  -86.88
1900.000000  2.45589 -106.08  2.58464  155.37  0.93278  117.84  1.55262  -11.87
1920.000000  0.50783 -108.31  1.94243  -15.20  1.16395  -27.34  0.26182 -126.75
1940.000000  0.57288  123.11  5.29500   68.36  8.42161  165.21  0.29200  112.68
1960.000000  1.62729  100.28  1.90819   50.28  1.45495   28.47  1.32344   92.01
1980.000000  1.14409 -118.20  1.28440   27.43  1.00699    1.85  2.48463  154.08
2000.000000  0.65741  120.00  3.84867   20.79  6.18488 -149.43  0.75290  111.02
2020.000000  1.50093 -113.63  2.30442  -81.50  8.53375  150.16  4.95195 -105.30
2040.000000  0.89167   80.74 205.08653   10.46 494.60766   27.07  0.88711   80.74
2060.000000  1.31523 -133.32  1.15271  177.29  2.34241  -18.65  1.35535  -57.52
2080.000000  1.26295  140.95  1.33082   28.24  1.01543   98.45  1.14614   66.25
2100.000000  1.19932   87.54  4.75995   24.96 315.29651   86.93  1.08820   77.37
2120.000000  0.88075  -85.36  5.44219   20.38  1.94124   -1.52  0.62893 -135.24
2140.000000  1.00618  -60.61  2.59448   45.25  2.40933   22.24  0.85603  -91.89
2160.000000  1.14887   97.95  4.35999   82.43  1.58549  101.78  0.98401   35.54
2180.000000  6.53319  -74.48  3.96527   77.93  1.58015   62.96  1.72011   31.10
2200.000000  0.91239  107.29 10.23750  133.52  5.94784  145.46  1.02462  117.39
2220.000000  1.11890 -112.40 13.55394   15.82  2.10804   41.51  0.87186  -94.72
2240.000000  0.37477 -113.52  2.61122 -158.15  4.75834   16.29  0.29086 -135.02
2260.000000  1.02237  160.47  2.99449  -87.41  2.76437   68.63  2.40706  152.42
2280.000000  0.79500  106.03 404.43816   78.83 101.26731  120.80  0.79320  105.37
2300.000000  0.19728 -100.88  2.77276  108.33 62.65840   87.67  0.28019  -84.81
2320.000000  0.87398   73.95 15.22707 -106.30  1.48008   92.75  0.71548   82.45
2340.000000  1.32050   91.28 14.44590 -105.00  4.88736  -98.08  0.89108   80.03
2360.000000  1.26172   70.46 10.43682 -174.35  3.17675  -18.15  0.50987   69.49
2380.000000  1.40003   78.69 10.04620   54.27  4.89358   65.52  0.85298   65.38
2400.000000  1.80411   65.34 16.12311  -11.91  3.31673  -54.50  1.18768   34.22
2420.000000  1.20428   66.87  8.76707 -152.98 11.32002 -173.16  1.32336   50.79
2440.000000  0.17451  -70.73  2.40464  102.05 11.90143 -174.28  0.16999  -81.09
2460.000000  1.76937  129.60  9.16295  116.07  1.93015   56.04  0.44569  174.61
2480.000000  0.39824 -123.41  8.97752  -25.08  7.85476 -170.74  0.29331 -118.24
2500.000000  0.50468  148.87  2.46854  -59.71 35.58244  -32.85  0.39805  161.79
2520.000000  1.29089 -140.33  1.04657   12.93  1.94688  -11.80  3.09992  132.63
2540.000000  0.27691  152.11 723.86380    1.74  4.72158   57.98  0.29346  138.40
2560.000000  2.55483 -176.22 20.70813 -150.56  8.88342  157.94  3.29501  157.62
2580.000000  0.19377   61.58  2.79787  -62.51  8.84995   88.21  0.57613   93.11
2600.000000  0.52748 -169.79  2.20578  158.45  3.24745  140.43  0.58434   94.85
2620.000000  3.66131   83.93 473.83912  139.22 435.27690   96.58  3.60931   82.04
2640.000000  0.80931   -0.37  1.97700    9.21  4.61020 -163.08  0.79511   41.79
2660.000000  0.29849  -43.13  1.83887 -102.77  4.12033  -87.97  0.49168  -47.69
2680.000000  0.18880   -7.56  8.66542 -153.74  3.76772 -171.31  0.34328  -99.78
2700.000000  1.78694  -19.43  2.55044  107.86 497.44621    6.64  1.15170   86.43
2720.000000  0.89193   57.19  5.11958 -136.60  5.36358   25.77  2.42824    2.54
2740.000000  3.75511    8.62  5.09573  132.88 15.41949  -81.35  3.66869   56.62
2760.000000  1.20613  176.96 18.01006 -126.29  4.16141 -135.20  1.17680  177.97
2780.000000  0.42590  134.10  6.02884  110.79  9.14700  111.25  0.47263  136.42
2800.000000  1.44564  134.31 11.20217  -45.29  2.61275  169.48  1.49602 -171.37
2820.000000  0.36121  151.41 17.90723  -62.39  4.69204  160.24  0.51998 -173.36
2840.000000  4.04101  -25.22 18.15950   62.10 17.91169 -120.95  4.43494  -34.19
2860.000000  0.95835  127.94 11.29733 -160.51  9.41928 -109.10  1.22142  133.47
2880.000000  0.50716   40.93  1.66965   51.97  2.88316  -71.44  0.18227 -103.78
2900.000000  1.32320   52.69  4.04412 -135.87 12.57322 -108.31  1.11486   59.40
2920.000000  0.70589  -30.68  2.00100  116.44  6.09037  -54.50  0.48247  -31.90
2940.000000  0.78643    1.28 10.91551   -3.76 23.35956   19.06  0.81019    2.39
2960.000000  0.65411   61.47  3.27766  156.96 609.09509   97.54  0.35671   40.53
2980.000000  1.22426   97.15  6.46963 -172.39 14.00134  -54.90  1.14408   88.58
3000.000000  2.19206  -44.61  6.62413  -92.10  7.69691   67.84  2.11287  -83.70
