# MHz S MA R 50
!   freq        S11              S21              S12              S22       
1000.000000  0.43471   40.60  1.53995    6.90  1.20218    6.74  0.36508   69.71
1020.000000  0.01580  101.07  0.78422  172.02 97.80616   82.09  0.04224   85.26
1040.000000  0.10507   51.28  0.09499 -104.11  0.55899 -111.15  0.21234   87.91
1060.000000  0.46846  -87.67  3.14381  -94.55  2.89012   93.06  0.51461  -89.22
1080.000000  0.06360  138.87  0.42055  -52.15 100.45506 -166.74  0.08347  155.70
1100.000000  0.07500  148.43  3.30660  -36.58  0.75278  143.29  0.14776  163.64
1120.000000  0.80623  -61.88  3.87677 -137.38  0.26803   18.46  0.51516  -56.32
1140.000000  0.82577  118.24  0.42958 -170.30  0.28110  172.94  0.82906  124.17
1160.000000  0.20631  -68.58  0.85352 -174.51  1.64199 -177.32  0.20422   36.35
1180.000000  0.83531   74.94  0.90504 -157.94  0.21828   66.42  2.65960   96.53
1200.000000  5.06242  104.93  0.30018 -110.39  1.89428  124.30  1.73587  131.91
1220.000000  0.22889   74.89  2.51585 -136.48  3.23994   22.35  0.31186   59.53
1240.000000  2.11673  -77.06 109.69408 -132.87  3.14748  -75.29  1.92254  -94.76
1260.000000  1.53789 -176.98  0.20241 -106.91  0.78799 -110.80  1.43522  -80.08
1280.000000  0.90775  -86.23 162.30755  -48.29  0.52726 -156.36  0.46821  -93.44
1300.000000  1.04322 -106.64  0.58346  137.83  1.93687  -20.72  3.98102  -99.86
1320.000000  2.98317   64.97  1.03448 -100.45  0.40415  174.53  1.54731   48.36
1340.000000  0.39814   67.41  0.39301  -23.40  1.27889  -67.15  0.87515  154.06
1360.000000  0.25014 -119.70  0.90926  -95.63  0.74139 -171.17  0.08132 -168.45
1380.000000  0.41926   67.40  0.25411   93.88  4.58431 -140.96  0.84502  101.96
1400.000000  1.08891 -117.34  0.75315 -114.59  1.59879  -51.69  0.88291 -111.58
1420.000000  0.10873   96.15  1.24633  -38.43  1.78960  151.59  0.24090   89.54
1440.000000  0.87012   96.55  1.53862   61.07  0.60607  178.70  1.22459  129.86
1460.000000  0.32611  138.68  0.67132  132.46  0.32084  -59.80  7.77176  -65.83
1480.000000  0.25035  -77.98  3.72168 -119.92  1.23517 -149.14  0.23739  -87.61
1500.000000  1.52303 -145.90  0.69226  130.34  4.23297 -112.41  1.10731  -74.07
1520.000000 46.57307 -136.79  0.59055  -63.69  0.94066   11.72  0.26824   87.32
1540.000000  0.63724  -36.87  1.97016 -171.05  0.41855   87.34  4.17077   39.03
1560.000000  0.30029  174.81  0.45793  -94.80  0.41888 -107.62  0.72476   66.32
1580.000000  0.85631  -85.79 157.54093  137.21 201.45934 -130.14  0.84827  -85.72
1600.000000  0.58503  -99.28  4.86309 -117.70  0.67052  -84.39  0.89995  166.60
1620.000000  0.74208   65.69  3.78617  -86.72  2.91849  -74.36  0.97656   84.25
1640.000000  1.38468  119.75  6.35456   81.47  0.83115   66.94  0.78662  179.29
1660.000000  0.87597  -92.28 277.64623  157.20  0.99638 -100.37  0.48904  -87.06
1680.000000  1.04242   83.28  4.54298 -167.43  3.79426 -120.28  0.67896   87.17
1700.000000  0.22410  107.25  8.47259  -23.51  1.60655  -26.81  0.32412  137.04
1720.000000  8.84273  -97.92 304.42765  152.27  2.57174  -10.18  2.29058 -131.43
1740.000000  0.43088   -4.86  0.81587  120.47  1.63780 -145.27  0.55653  118.17
1760.000000  3.60451 -159.19  0.70813  144.42 398.69401  177.36  1.20144  -77.33
1780.000000  2.16037   34.26  3.54425  158.65  0.94334    0.62  2.08253  -80.41
1800.000000  2.50039   94.83  2.87174 -125.19  2.85836   57.63  2.40845   92.50
1820.000000  0.16840  -35.28  1.03172  130.41  0.65864   90.90  0.55263   99.99
1840.000000  2.72440  -44.98  3.38624   35.10  1.72107   60.78  0.42278  109.33
1860.000000  1.40480  131.93  2.53443  -51.50  4.26665  -42.69  1.76498   75.10
1880.000000  0.57623 -116.53  4.53636   32.39  0.55272    6.67  0.49064 -133.04
1900.000000  2.08554  169.30  1.65932  114.32  0.74404  140.81  0.68227 -105.54
1920.000000  0.47530  143.86  1.35201  -50.80  7.05046   72.23  0.99484 -120.35
1940.000000  0.25268  112.50  2.71160   81.65  1.18677  -49.10  0.17426  164.82
1960.000000  0.81383   25.20  1.25369   65.01  1.45224   28.50  0.51100  -54.86
1980.000000  0.41202 -108.08  1.31485 -160.34  1.67354 -105.84  1.78754   29.55
2000.000000  0.36615   80.36  2.60184   39.18  2.90544  -52.39  1.07893   76.68
2020.000000  2.70734 -116.80  3.27553  -76.73  9.33524  -75.06  2.53920  -94.93
2040.000000  0.88662   80.97 331.34682   27.31  1.10067   94.55  0.29949   55.61
2060.000000  1.01462   -8.03  1.48632  -67.31  9.07241  -23.94  3.30734  -65.86
2080.000000  3.01873  161.66  1.36985  123.13  2.52556   99.51  2.56309   56.67
2100.000000  1.06247   85.51 15.31919  -15.08  8.60430 -135.03  1.18229   62.73
2120.000000  0.34056  -75.61  9.86288 -171.01 316.17243 -124.35  0.80970  -65.71
2140.000000  0.79084  -89.19  3.61606 -145.49 10.12231 -113.17  0.86893  -65.36
2160.000000  0.49718   54.68  2.11885   73.27  6.79472  156.61  1.53226   92.51
2180.000000  1.36247   39.32  0.80290   42.48  6.19147    5.20  9.09839   14.52
2200.000000  1.01629   97.16 12.57283 -170.92  6.15778  -44.40  0.88810  107.39
2220.000000  1.18026 -120.52 422.80750  -93.31  4.70825  101.22  1.62875 -106.29
2240.000000  0.26689 -110.69  4.38144 -176.45  1.13231   49.41  0.16736 -130.55
2260.000000  2.30550  -82.79  3.47510   55.62  4.05759  -88.42  3.19487 -168.74
2280.000000  0.26478  173.59  1.81120  130.65 38.75702   83.75  0.75229  101.37
2300.000000  0.47752 -103.37  3.83221  113.62  3.74337  133.42  0.30685  -99.56
2320.000000  1.02933   70.47 485.38664    4.19 27.20766   57.57  0.95023   60.28
2340.000000  1.53349   31.34  6.40574   80.15 15.62760 -161.65  0.61153   88.70
2360.000000  0.87374   57.51  7.29797  -27.71 28.48937  -19.61  0.88500   63.47
2380.000000  0.91625  128.00  3.43175   78.35  1.87464  125.84  1.18803  157.02
2400.000000  0.87865   74.13  2.48240  -28.65  1.22216  -12.17  0.46698  -79.35
2420.000000  2.18396   33.87  3.40941  161.96  7.69953   19.24  1.49875   56.60
2440.000000  0.12508  -82.54  6.15376   87.77  4.11538  122.18  0.06181   86.01
2460.000000  1.13728  131.89  6.20943 -118.91  6.94835  143.32  0.55569   21.35
2480.000000  1.01765  -55.28  3.04367  -18.30 17.28140   11.30  0.28577 -124.26
2500.000000  0.53521  144.30  3.55175  114.69  4.52002  -69.82  0.32611 -177.46
2520.000000  0.63854   56.04  1.66507  168.86  2.58034  144.68  0.51697  136.84
2540.000000  0.50722  161.36  3.57341   84.06  6.56701   21.78  0.25849  148.87
2560.000000  4.86432  151.28  5.64342  124.56  2.32878  139.74  1.28600  167.34
2580.000000  0.28246   33.06  6.28609  -62.72  3.17513  -84.48  0.28465   75.01
2600.000000  0.74393   87.94 26.00353  145.66  3.06179  178.20  0.86561  121.60
2620.000000  4.29281   27.91  5.01328   -3.90  7.81042  170.85  2.41765   96.70
2640.000000  0.33818   75.79  4.45781  155.21  1.64668  -20.04  0.28448   31.17
2660.000000  0.32828  -39.09  2.90802   74.67  1.80985 -118.03  0.26650  -22.25
2680.000000  0.18062   22.74  3.16536   16.63  3.85865 -168.62  0.10678  -51.20
2700.000000  1.15356   85.85 490.76817   26.63  1.50437  110.03  0.37378   49.05
2720.000000  2.30897 -142.47  1.96055 -125.97  4.37784 -167.84  0.82273   41.27
2740.000000  1.42505    8.48  4.29549  138.72  9.68434  127.58  2.22980   58.17
2760.000000  1.55763  170.42  3.03899   69.91 18.29039   65.07  1.24961 -179.72
2780.000000  0.41896  133.12  2.01700  144.38  4.33711  123.71  0.42902  121.58
2800.000000  0.74275  152.14  3.46734  123.48  2.41869  -11.16  0.85992  178.84
2820.000000  0.26133  171.37 15.29471  121.45  3.37337  152.75  0.39802  168.28
2840.000000  4.64536 -117.15  3.95777   78.92  3.53662 -150.84  1.55867  -17.93
2860.000000  1.05025  130.07 18.51933 -112.02  2.66540 -140.14  0.89646  108.65
2880.000000  0.10603  111.01  2.63095  100.66  5.55876  -74.31  0.70602 -157.85
2900.000000  0.76724   22.04  2.08391 -165.57  4.17706 -126.78  1.66436   64.42
2920.000000  0.40984  -33.19 13.38994  103.18 21.22844  -43.74  0.44839  -30.50
2940.000000  0.83143    4.68  5.46714 -178.68 11.02029   -1.64  0.82790    0.45
2960.000000  0.34300   27.54  5.93228    8.84 15.10242  176.51  0.31643   32.44
2980.000000  0.79631   73.47  3.42397  -37.11  7.71588  163.28  1.53377   61.13
3000.000000  2.45186  -71.29 49.04555   97.96 10.16286  109.72  2.32460  -87.71
