# MHz S MA R 50
!   freq        S11              S21              S12              S22       
1000.000000  1.78302  178.95  0.37970    6.36 41.39773  -86.07  0.58294   83.97
1020.000000  0.01772  151.58  0.20860    3.77  0.26626  171.82  0.00648 -170.33
1040.000000  3.74659  124.79  2.32293 -121.62  0.02611  -16.27  0.07312 -143.06
1060.000000  0.92722  -63.20  0.57257   60.21  1.23571   82.76  0.90895  -74.58
1080.000000  0.05839 -139.45  0.10048 -173.94  1.35326  117.95  0.05836  175.14
1100.000000  0.05427  169.86  0.67309  145.40  0.81488  -36.75  0.07707   92.74
1120.000000  0.78641  -70.94  1.34706   31.32  1.08285 -148.29  1.17070 -135.35
1140.000000  1.00960  106.81  3.17525 -160.08  0.84418   47.02  0.66321  121.74
1160.000000  0.47298   76.23  0.80794   23.85  3.55253   18.69  0.29773   75.26
1180.000000  0.13839  126.78  0.92747   -8.10  1.78758 -158.31  0.94091   93.39
1200.000000  0.67266   10.42  0.82891  -76.92  0.37399  -94.70  0.62564  139.77
1220.000000  0.31519   73.16  2.56332  -89.94  0.85742   66.66  0.34058   83.79
1240.000000  0.70131 -107.97  2.10484   67.77  1.12450 -136.89  3.24262  -68.75
1260.000000  0.92963  133.50  1.20978   12.94  1.23657  -11.76  0.85576  -71.19
1280.000000  1.58044 -113.86  2.84512  -92.73  1.46753  -99.16  1.03760   -8.98
1300.000000  2.82533  -76.88 108.92463  129.18  0.52414   90.20  7.07615  -14.20
1320.000000  1.55286   99.50 111.24899  122.64  0.41879 -160.14  0.97449  114.99
1340.000000  0.26198   92.21  0.55741  -52.35  1.57610  -65.97  0.32134  123.82
1360.000000  0.23863 -103.70  0.74544   18.37  1.02241 -144.38  0.22090 -109.02
1380.000000  0.88948 -112.57  0.83578   43.95  1.20209   42.11  0.41024   79.42
1400.000000  0.19272  -46.88  0.84696  -19.65 91.68588  163.88  0.93519  -97.71
1420.000000  0.24422   95.99  2.64908 -159.15  0.93669   17.31  0.15688  114.60
1440.000000  1.21565   80.47  0.82016 -101.94  0.71833  -70.66  0.29118  -12.77
1460.000000  0.83730   54.12  0.66906 -104.07  1.39837   65.26  0.83868   89.51
1480.000000  0.28584  -91.36  1.91628   54.73  2.85704  -16.46  0.25819  -53.99
1500.000000  1.10881  -72.33  3.94094  -17.66  1.29579   85.62  0.86022  -90.40
1520.000000  1.10828   87.35  4.38848   -2.71  1.78749   48.02  0.94628   78.05
1540.000000  0.14660  -77.49  0.48315   83.27  0.52376   95.46  0.83419 -106.77
1560.000000  0.54672   13.24  0.85592  165.51  1.87962 -134.45  1.29901   55.10
1580.000000  0.57894  -72.72  1.46729  140.75  4.41067   28.72  0.81566 -101.54
1600.000000  0.49782 -103.14  4.95083  -80.56  0.80876  -94.70  0.29465  -39.12
1620.000000  0.49256   99.38  2.11362  -96.35  2.50612  -78.22  0.78428   72.01
1640.000000  0.76229   37.90  2.45744 -101.62  1.49061  -50.82  0.92294   84.31
1660.000000  1.02289 -118.16  2.09936  -79.25  0.37459  -52.34  0.27480  -95.77
1680.000000  1.29455  124.51  5.88613  100.75  1.60683   51.47  1.95153   74.82
1700.000000  0.08631   83.09  0.40047  130.77  2.36500  -21.42  0.23149  132.58
1720.000000  0.33345  107.83  0.57245  135.37  1.66603 -130.17  1.62514  -29.96
1740.000000  0.66343  173.53  0.65209  169.06 341.56790  133.66  0.78683   91.88
1760.000000  1.23636  -50.78  1.87539 -142.79  0.94241 -146.01  1.48521  -22.91
1780.000000  4.64584 -172.33  1.42633   31.96  2.26898 -100.54  0.92309   32.75
1800.000000  0.58117   59.54  2.00516  117.94  2.05727   15.75  0.54930   77.66
1820.000000  0.39695   67.75 202.31043   -3.85  2.79278  156.70  0.57584   77.97
1840.000000  1.61090  -80.48  2.94081    8.44  1.78775   38.20  3.16106   -7.50
1860.000000  1.48693 -163.47  2.21996   58.16  3.58861  -13.97  1.06786   72.86
1880.000000  0.47441 -105.17  4.46385   32.71  0.84351  -32.84  0.83887  -12.06
1900.000000  1.39933  137.22  0.84427  -97.54  3.56839  173.67  1.57433   70.77
1920.000000  0.74877 -101.10  5.77765  -87.62  1.72426  -32.59  1.39329 -145.71
1940.000000  0.29382  132.00  5.15281  -97.17 214.13682 -153.44  0.31767  119.09
1960.000000  1.76476   83.90  1.48454   27.95  1.84644   33.35  1.65926  118.73
1980.000000  0.14935  178.63  1.01800  171.29  5.82427  -14.11  0.94410 -125.20
2000.000000  0.90940   91.69  6.36104   28.07  3.31206  -51.49  0.16461  -95.25
2020.000000  2.02156 -123.55  3.82801  -16.71  2.84362  -34.87  2.46169 -114.00
2040.000000  1.11042   78.86  4.86967   72.54 17.50864   98.19  0.87573   79.14
2060.000000  1.69558  -81.44  5.14291  177.37  2.41276  -11.23  1.27222  -73.46
2080.000000  2.62341   86.94  2.64878  104.86  1.49586   35.87  1.28717   84.59
2100.000000  1.51789   55.54  1.54570 -126.79  7.33055   70.05  1.04004   87.75
2120.000000  0.80873  -68.90  8.67066  145.19 11.68916   27.58  0.70021  -63.86
2140.000000  0.93593  177.79  0.92968   80.08  1.45849   44.84  0.53118  -74.41
2160.000000  0.88440   84.98 10.58913  107.46  3.76907   73.05  0.66031  106.92
2180.000000  1.95451   61.26  5.68811   48.54  1.00668   32.50  0.39975  164.11
2200.000000  1.07693   91.73  5.89443  -34.51  2.06097  -44.36  0.62298  124.80
2220.000000  1.31173  156.82  1.98124 -165.05 493.89034   16.24  1.18222 -120.20
2240.000000  0.28026 -119.92 13.22384   55.35  3.21409    3.29  0.23045 -110.51
2260.000000  0.68333  178.60  1.88683 -144.89  2.86007   51.79  1.19674 -173.66
2280.000000  0.33640  112.71  2.48753  141.14 25.16251  -46.07  0.83569  107.59
2300.000000  0.25234  -89.03  6.81309  162.66  3.93047 -178.38  0.23140  -87.92
2320.000000  1.10640   74.49 15.95598  -77.14 10.93714  102.11  0.96506   71.01
2340.000000  0.53870  -70.31  1.51983 -137.53 11.94927   11.52  1.00957   81.92
2360.000000  0.86988  116.81  1.53657  -26.23 14.47665  -16.10  0.92772   69.30
2380.000000  0.70545   92.39  1.99675   75.50 33.43681  122.05  1.09333   75.23
2400.000000  1.32394   64.11  5.59292  -56.98  2.62423  -53.23  1.34727  113.02
2420.000000  0.59911   42.69  2.43818  159.41  2.98186  167.65  1.69731  118.01
2440.000000  0.09886  -56.02  1.52591  159.06  4.28493  115.32  0.10956  -32.23
2460.000000  1.61975  118.26 16.72663  104.69 247.88224   38.19  1.51321  123.39
2480.000000  0.30930 -129.73  8.53208   -9.24  2.31958 -162.77  0.52068  -70.26
2500.000000  0.31517 -172.36  1.75468  -21.36  2.26069  108.38  0.26823  166.34
2520.000000  0.69961  127.68 11.64829  -20.57  6.16935  -26.40  0.50344  156.80
2540.000000  0.24563  167.93  6.47503 -103.53  6.88356 -159.87  0.25691  148.06
2560.000000  1.94101 -163.46 12.21294  -13.09  3.04102  170.81  0.81717  149.39
2580.000000  0.50749   85.46 485.12614   54.18  3.50965  -97.75  0.28330  105.49
2600.000000  0.79681   87.49 598.04614   12.25  3.68654  -63.82  0.94375   58.66
2620.000000  1.03727  134.97  3.03721   -3.87  2.62055    0.79  1.46256  -10.83
2640.000000  3.16096   18.10  1.43885   -3.36  7.02076    1.68  1.02719   23.53
2660.000000  0.37889  -42.66  3.66556 -129.28  1.78813 -115.11  0.25382  -47.68
2680.000000  0.36385  115.80  0.92916  176.96  1.90257  163.57  0.98333   -7.69
2700.000000  0.96794  142.77  1.98874   97.00  7.50198  122.59  1.02001   73.20
2720.000000  0.74405  118.15  2.13461 -110.45  2.98929 -158.67  7.78039  -73.78
2740.000000  0.11741 -157.46  1.86831 -101.34  9.18291  135.05  4.71601   19.09
2760.000000  1.16322  171.82  3.62053 -158.07  1.59053 -141.79  0.90570 -171.38
2780.000000  0.47745  128.43 20.47088  114.24  2.79562  151.89  0.42416  122.49
2800.000000  0.79936  152.48  2.64322  -51.19  4.65614  112.90  1.07955  -67.19
2820.000000  0.21249  136.60  3.50784  -55.14  8.68676  -42.10  0.23238  160.81
2840.000000  0.51666 -118.65  6.68677   94.16 35.18691 -118.47  4.44619  -46.61
2860.000000  1.10244  172.19  7.00154 -115.29  4.39193   22.35  1.37128  131.95
2880.000000  0.25952   59.23 548.88824  -27.15  2.85065   92.45  0.25549  -59.61
2900.000000  0.75551   44.65  5.06515 -135.35  2.48009   41.62  1.05015   42.36
2920.000000  0.44686  -27.95 595.03716   45.49 10.66050  -50.59  0.47264  -27.97
2940.000000  0.81403    3.24 838.16816  -53.49  2.82047   12.93  0.74203   10.97
2960.000000  0.37418   45.73  9.68870 -163.35  6.38033 -162.53  0.32829   52.81
2980.000000  1.24952   90.47 11.81340  149.01  4.95728 -176.65  1.10486  110.04
3000.000000  2.83223  -78.29 11.35267  120.92  9.58185  121.39  2.70172  -85.78
