# MHz S MA R 50
!   freq        S11              S21              S12              S22       
1000.000000  0.45930   49.84  1.36364 -176.74  2.04223 -169.89  0.58968   86.28
1020.000000  0.04066  103.87  0.76162  172.68  0.45910  173.00  0.03092   93.50
1040.000000  0.57072   13.84  0.37518 -114.85  0.24564 -111.78  0.13743  109.04
1060.000000  0.29735 -102.94  1.34571   83.79 232.15465   -9.81  0.57196  -96.25
1080.000000  0.08301  155.90 28.45747  165.65  1.95916  -75.15  0.08813  167.48
1100.000000  0.04049  161.21  0.37652  -42.10  2.33608  157.72  0.06587  164.47
1120.000000  0.87331 -139.09  1.02974   29.08  0.60831 -179.84  0.82660 -113.56
1140.000000  0.50071  116.11  1.39507   35.05  2.25990 -163.74  0.88953  104.92
1160.000000  0.18139  138.32  0.14650  151.40 78.46425   78.05  0.29417   81.89
1180.000000  0.62935   96.59  1.32843 -170.67  4.08932   -8.29  1.26179   62.24
1200.000000  1.18697  127.73  1.13630  129.83  0.31787  137.39  0.42135  105.23
1220.000000  0.29897   61.31  4.78306 -166.56  2.44612 -128.21  0.30759   57.16
1240.000000  1.17668   29.95  0.30286  -45.99  2.39507 -149.57  2.01532  -77.99
1260.000000  1.07928  -84.91  0.76524   57.93  0.36524    2.92  1.04083   21.61
1280.000000  0.74095  -71.09  2.33173   79.28  0.70480   40.85  0.45073  -80.29
1300.000000  1.08752  -60.82  1.00327 -151.51  1.97171  -88.59  3.36529  -73.86
1320.000000  1.44024   78.16  0.71706 -178.12  0.60890  -90.08  0.93909   69.70
1340.000000  0.27826   53.73  0.63407   73.16  0.45246 -163.14  0.24923  102.64
1360.000000  0.24536 -108.52  5.85109  -58.13  5.79334  160.07  0.23917 -116.96
1380.000000  1.54534   64.30  0.33594  136.46  1.29973   98.88  0.79447   97.55
1400.000000  1.13598  -94.05  4.56306   29.68  2.48189 -158.47  0.69539 -116.09
1420.000000  0.30960  154.54  0.69129   85.07  3.40046 -128.79  0.19273   87.06
1440.000000  0.93800   86.42 101.88858 -168.95  0.99643   64.86  0.67501   88.98
1460.000000  0.75496   82.39  2.05358  137.91  0.29691 -113.06  1.44688    2.39
1480.000000  0.42696   14.27  0.42370   39.81  5.87586  144.97  0.28917  -72.94
1500.000000  2.59074  -48.70  0.70832  -24.62  3.46329  -45.30  1.17707  -75.94
1520.000000  0.79823  111.99  0.89005    3.08 10.03337   -6.34  1.14906   61.51
1540.000000  0.52048  -81.10  1.27696   52.06  0.63614  -76.94  1.19961   -6.48
1560.000000  1.30445   70.46  5.04246  -89.01  0.63520 -118.80  0.49088   50.20
1580.000000  1.30965 -129.21  0.90506 -139.17  3.19548  -36.67  0.68992  -79.87
1600.000000  0.67329 -101.00 10.92106  169.90  8.29900   50.82  0.67520  -94.98
1620.000000  1.77733   52.64  2.19763  -90.46  5.07646    1.10  1.25558   98.80
1640.000000  1.14146  110.61 155.82779   33.53  0.55947   82.14  0.09892  117.43
1660.000000  0.88933  -91.29 170.15300 -104.72  0.65597  -22.31  0.58966 -113.09
1680.000000  0.34115   68.36  1.21636 -132.24  2.37412 -118.13  0.59293   88.64
1700.000000  0.53871  -42.21  0.77292   62.39  0.78451  126.05  0.15169  115.73
1720.000000  1.18018 -152.57  2.04289  -78.18  0.62330  158.13  0.56691 -168.00
1740.000000  0.52242  105.72  0.97740  170.02  0.66589  141.10  0.49371   49.71
1760.000000  1.08772  -18.94  0.57449  175.94 206.87901  137.18  1.21477  -77.60
1780.000000  2.08050   70.52  4.54471 -108.45  0.70071  -19.60  0.80940  -21.59
1800.000000  1.09011   55.31  4.31246 -158.84  6.90760    7.07  0.69072   80.32
1820.000000  0.68610   99.43  2.32720  163.33  1.60959   84.51  0.57311   79.22
1840.000000  3.30253  -84.49  3.77724  -34.26  1.64347   29.16  1.20639   33.59
1860.000000  1.56759   93.94  2.53300   55.58 184.23541  -60.00  1.51062   73.43
1880.000000  0.91310  -96.58 135.47903  -89.04  0.85832   31.15  0.37333 -152.51
1900.000000  0.50860  148.66  0.65111  106.46 18.89160  152.83  3.63610  108.77
1920.000000  1.17425  -71.81  1.15540 -111.38  7.66427  166.91  0.98933 -106.91
1940.000000  0.07362   28.00  1.30499  -22.07 232.82398 -136.19  0.31842  118.71
1960.000000  1.20132   94.62  2.67119 -122.03  1.35540  -14.47  0.59146   95.36
1980.000000  3.07583  -27.47  2.05073  -24.16  1.35372 -126.10  1.68930 -126.83
2000.000000  0.78822  104.57  4.21375   60.66  3.81711  134.32  0.70618   91.64
2020.000000  8.56294  -19.14  4.25854  -29.78  1.07561  -58.68  1.30559  -90.52
2040.000000  0.78394   93.73  4.44286   91.46 236.81911   44.56  0.89083   80.62
2060.000000  2.29392 -104.94  5.89803  -41.12  1.30884  117.60  1.18145  -13.88
2080.000000  6.76665   20.62 18.90891 -116.11 55.01987   18.76  3.76966   39.07
2100.000000  1.29215  104.35  1.74577   43.88  5.72284   65.96  0.89860   71.12
2120.000000  0.74709  -97.74  4.65584  121.54  8.51980 -127.84  0.58117  -66.47
2140.000000  0.40613 -136.78  2.85729   27.08  2.51784   61.55  0.67817  -38.19
2160.000000  2.40464   43.65 10.67738  105.03  2.13478  106.25  0.56211   91.10
2180.000000  0.68988   91.14  2.21754   59.12  0.92323   34.19  1.32003   -7.58
2200.000000  0.72974   69.35  1.60627  -18.24  6.63926  130.76  0.86678   84.73
2220.000000  1.28129 -113.75 12.17436 -106.45 414.94949  -28.37  1.17269 -120.75
2240.000000  0.25351 -118.87  4.69457 -143.14  4.52656  -20.82  0.26081 -138.84
2260.000000  0.43648   92.73  1.51176   75.23 12.12762  -88.61  3.79232 -162.83
2280.000000  0.58879   82.75  3.40038  -50.84  5.97860   91.65  0.66259  106.94
2300.000000  0.27746  -86.08 26.70762  -29.24  4.81535  164.69  0.24121  -87.70
2320.000000  0.70714   62.97  2.40856   31.81  7.84161 -124.40  1.17094   64.86
2340.000000  1.55161  119.72  2.84843 -108.48  2.17567 -118.49  0.55679   72.91
2360.000000  0.90384   81.47  8.55271   -3.40  6.60127   22.83  1.29609   84.31
2380.000000  0.77849   71.65 10.10353  108.41  2.80382  122.10  1.04555  100.29
2400.000000  1.77416   50.64  7.66677  -38.15  2.97866  -29.92  0.65390   64.28
2420.000000  0.49378  156.68 11.67034  -10.04 14.71031  163.55  1.25221   57.57
2440.000000  0.22475 -100.79  1.87824  157.66  1.33801  129.20  0.80749  129.61
2460.000000  0.95204  152.49  2.29338  115.20 11.58103  -69.57  1.29750  134.59
2480.000000  0.21634  -94.52  3.39678 -178.75  4.66558  -29.37  0.23088 -125.09
2500.000000  0.30907  163.35  3.60747  -71.12  1.52929  -39.46  0.32018  175.96
2520.000000  0.76792  132.59  7.17487   28.83 11.74721   -0.12  0.82842  147.05
2540.000000  0.28242  156.18  6.64201 -103.75  3.20342   72.43  0.40977  142.23
2560.000000  2.38880  156.82  2.98950  169.75 12.56412  -29.52  3.45065 -128.89
2580.000000  0.38168  111.15  3.26006   91.67 12.36214  -60.38  0.46814   83.74
2600.000000  1.01724   76.56  7.07587   -7.05 13.09451  155.63  0.76048   91.88
2620.000000  1.72348 -164.61  1.67126 -157.33 409.70057  119.26  3.68099   80.92
2640.000000  0.71800    1.10  1.82086   -5.63  3.56063 -155.16  1.15363   41.81
2660.000000  0.15689  -89.22  2.06839 -117.89  2.04321   63.46  0.24590  -34.33
2680.000000  0.10215   20.90  1.58868  153.72 497.71132  112.35  0.20695    4.72
2700.000000  1.22050   56.97  3.95359  -79.26  1.87851  110.47  0.59905 -126.82
2720.000000  1.45007   86.81 10.30945 -127.76  1.00829 -119.72  0.43965  -57.33
2740.000000 18.54780  135.82  5.50589  -99.03  2.59654  126.29  1.97684   49.73
2760.000000  1.22012  179.11 16.36332 -135.38  3.17939   40.86  1.27654 -168.10
2780.000000  0.39140  156.18  6.27060  -13.71  8.54405   -9.30  0.56165  127.30
2800.000000  2.60442  117.70  1.78827  158.60  6.00497   -9.55  1.17096  151.34
2820.000000  0.48897  140.68  3.47831  -48.82  3.63895  -71.07  0.53069  160.17
2840.000000  4.70014  -42.98 32.51116 -135.58  4.63366   70.86  1.53840 -174.06
2860.000000  1.14365  128.21 21.48760  -92.72 655.63154  128.58  1.08627  129.92
2880.000000  0.33313   56.96  9.47025   80.24 19.06966  -91.39  0.26769   56.68
2900.000000  1.13336   72.41  3.39944 -161.85  7.48318 -175.60  1.09208   61.30
2920.000000  0.46806  -33.77  7.17418  123.75  1.54220  136.40  1.93541   28.00
2940.000000  0.76502   -1.74  2.47555    9.17 765.77687 -118.13  0.81536    3.28
2960.000000  0.34253   47.21 11.54419 -179.95  4.84261   10.28  0.48720   53.71
2980.000000  1.52736   84.35 23.85674  148.21 850.61746 -147.64  1.40639   86.02
3000.000000  4.25278   -9.19  3.37440 -111.55 25.49462   64.28  2.54606  -70.12
