# MHz S MA R 50
!   freq        S11              S21              S12              S22       
1000.000000  0.67879   60.69  0.80965    6.09  0.93231 -172.82  0.99416  109.80
1020.000000  0.02755   93.68  0.11073  166.10  0.82171   -6.64  0.01814  160.36
1040.000000  0.14594   79.42  0.34128 -130.91  1.28956   57.87  0.60433   56.25
1060.000000  0.54664  -54.68  3.01758   83.50  0.21803  -56.69  0.24779  -96.07
1080.000000  0.11088  155.60  0.64494  141.31  0.62348  -72.81  0.05376   79.92
1100.000000  0.13561  152.89  1.72349  -23.36  4.42981  -23.23  0.09944  155.16
1120.000000  1.24755  -90.77  1.95210   28.60  6.47322 -147.00  0.89105 -101.07
1140.000000  0.42260  -40.94  0.80911   37.72  0.12860   81.62  0.60942  131.53
1160.000000  0.31874   68.40  1.60913   29.56  1.97517   26.08  0.08442   67.04
1180.000000  1.25133   80.38  2.64161  168.28  0.11214 -119.82  0.21418   43.48
1200.000000  0.77937  156.80  0.62155  130.17  2.78011  127.68  1.34082   85.10
1220.000000  0.37005   54.22  0.60405   92.37  2.21022 -159.92  0.24632   56.25
1240.000000  2.97485  -68.62  0.96096 -149.06  0.85374   70.95  1.09631  -61.32
1260.000000  0.74362   51.44  0.21636  -50.62  0.73751  -16.30  1.11839 -100.66
1280.000000  0.80832  -85.79  1.44748  110.01  2.55955   43.38  1.39062  -85.14
1300.000000  2.99784  -93.52  2.04249  -32.10  0.75517  144.83  1.64217  -68.84
1320.000000  2.81566  116.79  1.73915  128.36  1.97204   88.20  1.13444  101.03
1340.000000  0.36573   98.88  0.62799 -131.18  6.16082  -69.90  0.47595  106.03
1360.000000  0.41293 -110.92  1.41130  165.79  1.04266  121.17  0.25267  -97.32
1380.000000  1.40573   91.68  2.83924   -2.84  0.91448   34.94  0.59070   87.15
1400.000000  0.36218  -91.65  0.35316 -143.21  0.78654  -29.58  0.57842 -172.86
1420.000000  0.20439   92.80 101.28606  -29.36  3.26185   51.09  0.21374   93.97
1440.000000  0.99337   84.49  3.01310 -128.09  0.45436 -127.45  1.47184 -120.08
1460.000000  0.70605   65.14  0.89343  -59.15  1.60439 -105.44  1.16939   86.07
1480.000000  0.30455  -78.32 127.97200  -25.85  0.81322   18.12  0.12878  -64.28
1500.000000  1.18174  -81.63 160.59859  168.53  2.52672    3.58  1.33484  -98.51
1520.000000  1.02504   66.11  9.94815  178.08  1.06022   49.03  0.79018   83.47
1540.000000  0.41546  -20.07  0.47006  107.54  6.39645  168.54  0.98732  -76.06
1560.000000  1.11410   96.32  1.75007  171.26 173.66529 -171.88  1.49622   73.34
1580.000000  0.58310  177.19  0.50493  -60.86  1.40035 -105.67  0.81325 -112.34
1600.000000  0.45876 -109.25  1.10456 -163.99  0.77190 -169.44  0.41700  -91.60
1620.000000  0.17193  -74.25  1.79725    9.56  3.91015 -163.29  0.43121 -157.27
1640.000000  0.74366  102.11  1.53706   87.16  6.26210  113.63  1.12278  115.26
1660.000000  1.60021  -86.34  1.61454  -67.95  2.35446  -68.52  0.64995 -106.19
1680.000000  0.57845   63.98  1.47207  -65.65  1.02841  -78.07  1.04101  137.03
1700.000000  0.14131  120.80  1.99773  152.43  0.71398  129.57  0.02490   75.68
1720.000000  9.04466  -98.26 152.29295  132.93  7.87055 -149.05 12.17435   32.38
1740.000000  0.92464  100.02  4.23830 -150.77  3.19540  121.02  0.81665  111.73
1760.000000  0.96412 -152.71  1.32416  147.58  1.12742 -146.67  1.06430  -40.74
1780.000000  2.52910   41.52  3.30938 -127.41  5.45847   25.09  2.88050   87.65
1800.000000  1.09802  -10.86  0.86736 -143.59  0.64567   34.97  0.31827   98.50
1820.000000  0.37481   72.49  7.41877  149.65  3.13250   89.91  0.59714   72.87
1840.000000  2.11383 -123.29  0.76695   -5.62  0.45141  -16.04  0.76042  -68.21
1860.000000  1.48779   53.65  2.44641 -142.78  1.71594  -42.02  5.02565   76.49
1880.000000  1.25565 -163.67  1.14333  145.20  0.74536  -56.94  0.24052 -156.20
1900.000000  0.58287  129.44  0.71700  133.97  1.97229  143.89 16.15440  125.28
1920.000000  1.13180  -83.86  4.86491  -24.05  8.05437   83.91  0.86174 -108.23
1940.000000  0.16619  102.03  1.40708    1.70 221.19425 -149.72  0.31790  119.04
1960.000000  0.22494  -14.66  2.12961   62.04  7.33944 -152.69  1.13047   98.82
1980.000000  4.88958  150.10  3.79937   25.41  0.76540 -146.70  0.29293  -15.69
2000.000000  0.83836  165.68  1.50024  138.09  7.89855   31.59  0.82751  108.96
2020.000000  9.70183 -178.06  4.56473  -69.88  2.50846   78.29  2.11680   82.82
2040.000000  0.65093   91.24  1.55618  125.57  4.50895 -126.22  0.79008   86.71
2060.000000  2.99437  -41.42  4.75214  124.71  1.83585  161.51  1.63877  101.77
2080.000000  2.07004  119.22  1.03198  100.48  1.70309 -129.23  1.68137    0.31
2100.000000  1.36634   82.58  4.75181 -134.80  4.66170   20.86  1.33607   73.33
2120.000000  0.67613  -48.13  3.08255   22.18 11.79873   28.81  0.84437  -62.04
2140.000000  0.45322  -83.19 11.44884   52.72  6.25304  -87.61  0.88491  -74.80
2160.000000  0.74018   83.95 10.81743  102.61  3.63264   74.29  1.98775   88.92
2180.000000  1.76121  106.77  2.91773   11.15 333.91961  -56.94  3.33610   83.15
2200.000000  0.93541   98.11 346.07172 -111.28 11.43395  164.68  0.73164  112.57
2220.000000  1.01625 -116.00 12.20851   68.97 12.79697 -154.19  1.16433 -115.77
2240.000000  0.31352 -112.81  8.77844   75.50 513.39929  -19.96  0.30630 -122.85
2260.000000  0.90306   94.91  2.72294  128.74  4.79932 -100.84  5.44046  171.09
2280.000000  0.70511  115.14 10.65261  -80.33  3.17052  143.95  1.09126  100.72
2300.000000  0.28433  -64.15  3.73964  125.62 48.23991   69.20  0.29702  -85.60
2320.000000  0.98850   65.08 18.69397   82.00  1.82690  -93.54  0.84127   40.99
2340.000000  0.87701   81.01  7.16232  -86.24  5.94280 -134.28  0.99277   80.93
2360.000000  0.79584   74.82  9.64352  -11.52  3.36384   10.58  0.82332   89.05
2380.000000  1.09979   73.58 535.30716  -17.53 18.29302  132.72  0.74994   78.00
2400.000000  1.50336   54.52 356.23567 -118.21  1.68784  143.59  0.77889   49.19
2420.000000  2.14595   41.91  3.49403  -12.81  1.73391 -134.95  1.68636  -20.09
2440.000000  0.12434  -70.00  9.71307  173.47  3.75723  -86.85  0.11715  -81.71
2460.000000  1.12717  160.39  2.49746   87.84  3.36053  -82.96  1.23725  140.41
2480.000000  0.52156 -164.20  5.62220   35.51  3.81331 -144.19  0.39132  -44.52
2500.000000  0.51449  151.20  3.08582  -75.73 25.86547  -96.34  0.38174  164.57
2520.000000  0.45400  145.02  1.56299 -167.55 314.98569   65.67  0.66850  134.73
2540.000000  0.20599   69.00  1.06042   27.68 247.84021  -27.76  0.27628  151.97
2560.000000  2.84488 -137.76  6.33402  -27.45 352.36586  -83.56  2.86999 -173.38
2580.000000  0.37479  153.17  2.28630  148.58  6.18538  103.93  0.86925  106.42
2600.000000  0.72980   90.17 13.69788  164.67  7.63737  178.70  0.96464  100.16
2620.000000  0.76652   88.20  7.36902 -130.35  7.55176 -154.23  7.03945  -41.07
2640.000000  0.38396  -23.12  1.94191  -14.35  8.53142  158.10  0.73783   40.08
2660.000000  0.18287   -7.50  3.66812   73.81  1.79023 -113.22  0.26990  -19.26
2680.000000  0.24454  -65.51  2.17520 -152.67  3.95276 -164.33  0.13622   41.46
2700.000000  1.34197   67.67  9.75307 -101.61  4.60927  153.11  1.04002  128.41
2720.000000  0.92483   -8.79  1.90281 -141.99  4.77431   34.78  1.64807   30.10
2740.000000  4.86906    4.39  7.86588  -71.51  3.09260  -74.75  1.82382   71.33
2760.000000  1.26019  175.12 10.62221 -160.19  2.35359 -133.57  1.11410  176.42
2780.000000  0.48168  111.28  5.61267  123.51  5.58735  -58.34  0.55646  125.93
2800.000000  1.73886   81.22  1.70266  158.68  7.19028  -19.07  1.15334  148.51
2820.000000  0.41603  163.81  3.11826  164.13  3.43813  160.92  0.63030  125.97
2840.000000  1.50159   71.17  3.59004   43.12  3.97950   80.77  3.64181 -134.83
2860.000000  0.82583  158.57  3.53898   88.34  2.22967 -149.59  1.15779  175.41
2880.000000  0.21688   59.56 18.80878   74.70  3.12905   74.72  0.14565   88.77
2900.000000  1.23366   57.57 11.04986   60.71  8.77779 -141.65  1.46809   48.86
2920.000000  0.44619  -27.99 679.05466   17.39 23.11996  104.35  0.45234  -35.02
2940.000000  0.57710  -15.38  3.18829  -11.67 11.01659   -2.38  0.80435    0.81
2960.000000  0.38737   33.40  9.14015  162.05  8.96719   -8.74  0.33942   37.37
2980.000000  1.37529   84.17 22.96761  -16.52 10.48331  131.94  0.74928   74.21
3000.000000  2.35194  -78.65 23.92156   94.66  4.08389 -108.05  1.76606  -86.66
