# MHz S MA R 50
!   freq        S11              S21              S12              S22       
1000.000000  0.52278   76.56  2.17624 -175.63  0.71413   11.06  0.63414   75.48
1020.000000  0.04310  106.95  0.61334  169.13  0.55840 -177.62  0.11610  119.44
1040.000000  0.21757  105.92  0.91737 -126.43  1.32060 -116.79  0.13214  113.29
1060.000000  0.60371 -168.86  2.26756  -89.51  1.32625   81.74  0.58198 -126.62
1080.000000  0.07549  154.92  0.63823   82.57  1.70014  -70.70  0.06874  105.06
1100.000000  0.08995  149.05  2.26228  121.56  0.17832   86.92  0.14593  -85.22
1120.000000  0.77621  -76.09  0.39896 -169.58 68.06485  150.44  0.90691  -96.57
1140.000000  0.75324   88.20  1.44453   38.46  0.28664   44.48  0.37999   73.94
1160.000000  0.32331   71.21  1.26752   34.79  1.07262 -153.80  0.21946   69.99
1180.000000  1.04157   24.49  0.71120   -5.10  0.46296  -18.74  0.75138   32.60
1200.000000  1.16031   86.11 98.29175  177.13 239.77318   39.33  1.15162   85.81
1220.000000  0.40451   72.90  2.71807   43.36  0.57257 -170.34  0.38521   87.28
1240.000000  1.39670  -67.36  3.39019  -61.64  0.30323  -56.14  1.33214    1.53
1260.000000  0.87735 -139.51  0.32267   -9.44  0.51183 -121.19  1.29196  -45.15
1280.000000  1.58494 -142.81  0.34669   12.73  0.86975  -86.82  1.38968 -122.19
1300.000000  3.36730  178.44  0.96292 -164.77 248.64054  109.57  2.81638  -77.18
1320.000000  4.88280   85.67  0.37121 -153.91  1.25595  -95.30  1.31381  127.61
1340.000000  0.42266  103.80 10.98572 -101.47  2.40598   -5.93  0.45028  102.61
1360.000000  0.37166 -122.31  2.14008  172.14  0.50597 -109.69  0.17502 -113.93
1380.000000  1.00555  106.55 262.96120  -73.06  0.84189   51.85  3.23930 -119.87
1400.000000  0.95584  -98.23 313.27626 -101.88  3.26158 -151.08  0.83866 -100.02
1420.000000  0.20825   91.05  6.21197  102.02  0.58783   74.14  0.15003   92.04
1440.000000  0.67324   99.58  1.18817  -20.07  0.61496  -66.46  1.07539   -7.35
1460.000000  0.34664   43.14  2.78390  135.96  1.41372 -143.81  1.28735   82.40
1480.000000  0.14890  -54.10  1.72464   14.29  0.55544  106.24  0.24230  -27.91
1500.000000  1.13666  -57.02  5.20401   25.96  1.83036  -96.30  0.91407  -88.25
1520.000000  0.96980   66.59  4.10600   94.36  3.71393    2.12  0.83257   82.83
1540.000000  0.64655  -54.21  0.82576  -94.78  2.29131 -179.15  0.31278  -69.23
1560.000000  0.71687   56.19  0.78197 -122.06  1.39327  -84.79  2.00983   24.24
1580.000000  0.72437  -98.80  1.01733  117.17  4.08127  111.35  0.73936  -77.26
1600.000000  0.25807 -158.79  0.44794  160.93  2.22145 -127.77  0.54797  -92.40
1620.000000  1.11514   92.48 253.85469  175.08  1.38770  -30.38  1.89387  104.33
1640.000000  0.06716  100.41  0.89746  -63.62  3.34308 -179.20  1.24055  120.14
1660.000000  0.46269    5.84  0.84218  -74.04  0.78467  -61.09  0.49240 -107.13
1680.000000  0.84012   67.93  1.20802 -136.46  1.03076  -86.62  0.49299   85.59
1700.000000  0.14723  101.93  2.62511  161.22 364.46120    5.23  0.22699  113.22
1720.000000  0.74959  161.25  0.57091 -147.40  1.27641  167.23  2.64595  135.84
1740.000000  1.16935  102.24  2.58839  145.99  0.64276 -167.74  1.63139 -150.91
1760.000000  1.02760  -87.07  6.36811   82.20  0.71261  177.06  7.76105   31.43
1780.000000  5.04798  -51.12  1.94516  -26.70 182.69608  -58.21  2.70009   58.71
1800.000000  0.84308   25.94  2.03368 -130.64 305.67848  113.96  0.96773   69.17
1820.000000  0.26571   69.17  1.35816  -10.64  1.02544  129.50  0.22511   57.44
1840.000000  1.48914  178.66  1.55543   55.88 227.50862  -66.17  2.06793  -60.87
1860.000000  1.13104   63.78  3.12431 -128.75  6.38519  167.18  1.74971   67.95
1880.000000  3.76031  160.44  5.55074  -66.90  0.80178   -0.41  0.64128  -84.61
1900.000000  0.84657  113.99  3.00016   54.79  3.36016  121.02  1.76838  113.67
1920.000000  0.82827 -109.72 10.33636   64.71 192.39751 -176.91  0.89400 -112.37
1940.000000  0.35642  123.53  4.40175  -13.67  4.43408   93.88  0.24674  126.22
1960.000000  1.91600   52.12  1.85049   34.01  1.87440   42.10  1.54754  150.64
1980.000000  0.99558  -97.96  3.96643 -161.29  1.35329   56.80  0.54515 -107.43
2000.000000  0.94883  -21.60  2.08780  -48.80  2.02972   42.56  1.09766  151.29
2020.000000  4.13064 -126.59  8.65053  -61.19  4.43686 -172.33  1.06621  -69.13
2040.000000  0.96295   81.72 14.34190  -21.30  7.32924  154.53  0.78586   76.85
2060.000000  2.68989   11.20  1.12773  141.57  1.49818  -37.59  0.54444  -72.04
2080.000000  2.11047  123.25  1.07968  105.36  1.78751  -82.69  1.56086   33.41
2100.000000  1.11498   65.36 10.90618  165.48  1.66001  -27.56  0.64283   91.30
2120.000000  0.79166  -69.57 11.86038  144.22  6.01843   32.16  0.75867  -54.07
2140.000000  0.67233  -57.84  4.07842    4.45  1.76134 -168.15 94.72532  -34.91
2160.000000  0.32679  152.14  7.19483  161.33  2.62097  -55.84  0.49920   84.21
2180.000000  1.21710   88.96  1.61312   -8.91 382.18974  -42.14  3.34999   82.43
2200.000000  0.97274  115.70  6.83698  -55.00 15.71518 -154.40  0.98345  101.07
2220.000000  0.85611 -132.01  3.37736   81.55 16.55813 -174.58  1.07473 -113.95
2240.000000  0.27785 -122.85  7.55947  -10.67  3.65445   65.53  0.37138  -90.29
2260.000000  3.22794 -138.42 12.76914  -72.75  2.54564   64.70  1.80440 -156.89
2280.000000  0.53070  103.93  6.25537  -48.76  2.16792  122.72  0.56071  -67.36
2300.000000  0.37191 -100.37  2.77618  112.18 15.13433  -78.29  0.27479  -81.28
2320.000000  0.52649   46.02  1.81559   39.68  2.21545   79.68  0.66392   68.77
2340.000000  1.06350   70.95 14.44202 -105.90 572.09508  116.39  1.14584   75.21
2360.000000  0.63309   14.56  2.72400  -21.86  2.99965   -5.20  1.05878   87.70
2380.000000  0.48866   70.18  1.85504   94.84  2.26223   56.81  0.35453  -80.96
2400.000000  1.54429   33.19  9.92846  110.74  7.64007  -18.31  1.47162   22.80
2420.000000  1.33514   59.04 1042.27348 -157.98  8.17243    0.83  1.79761   47.96
2440.000000  0.15315  -82.20 838.02049   89.45 482.56802   37.43  0.15263  -82.07
2460.000000  1.68028  124.28 21.77818  129.80  4.04629   87.98  1.54600  109.15
2480.000000  0.42116 -143.44  1.90470 -174.72  5.43720  135.35  0.23688 -128.11
2500.000000  0.39035  161.30 615.81684  -82.94 17.54235  102.12  0.40040  161.21
2520.000000  0.36675  166.52  1.19312 -175.14 13.36268  139.88  0.61534  133.45
2540.000000  0.21180  131.34  3.08828   31.63  1.48618   52.12  0.18056 -158.30
2560.000000  2.24738 -133.78 12.94448    7.01  2.55759  -48.86  7.56462  102.85
2580.000000  0.38266  -94.54  2.59643  -86.46 12.76136  -57.63  0.51775   79.95
2600.000000  0.46006    0.78  1.22652  -14.67 351.53520   40.69  0.80348   87.05
2620.000000  3.07644   28.74  7.67596   19.08 13.64548 -143.24  3.23288   95.12
2640.000000  0.59437  -69.63  1.89826  -10.10  1.88615   35.04  0.45679   -1.88
2660.000000  1.85642   47.45  1.88767  -99.76  3.62982 -106.64  0.44742  -40.67
2680.000000  0.34000 -158.42  1.84222  171.41  5.06366  132.27  0.37697  -56.11
2700.000000  1.16234   33.69  7.54255  165.13  2.86267   87.57  0.52947   80.24
2720.000000  2.05047  168.06  2.04201 -157.57 487.07081  141.44  1.24187   61.09
2740.000000  4.47932   46.50 16.43546  122.84  5.29271  113.18  2.74881   68.47
2760.000000  1.22259  177.88 16.07700 -150.16  1.76427 -109.73  0.92508  175.81
2780.000000  0.98848  120.16  4.46359  -20.61  4.05770  134.18  0.42810  129.00
2800.000000  1.23267  143.03 391.88874   70.45  1.86032  -57.28  1.60256 -147.62
2820.000000  0.01071    6.93  1.73213  -58.06  3.98441  -19.53  0.47532 -178.43
2840.000000  0.94172 -125.86  2.38646   57.57 11.42760 -109.59  4.31635  -18.93
2860.000000  0.51405  118.72  5.03103   84.07  3.76994 -153.32  0.85759  139.34
2880.000000  0.26572   57.91 18.45577 -103.29  4.64057 -105.87  0.31651  102.26
2900.000000  1.24991   52.79  9.00313 -114.07  3.43139 -163.66  1.38764   72.88
2920.000000  0.34252  -32.87  3.01760  100.70 14.53208  -82.79  0.50084  -20.44
2940.000000  0.80889    4.05 14.70167  173.06  2.47954    9.59  1.15749   23.34
2960.000000  0.31021   34.44  7.83965  -25.65  7.89327  149.64  0.31645   42.33
2980.000000  1.61024   98.23  5.21081  170.37  2.51019  146.37  1.87317  118.92
3000.000000  2.21179  -63.68 15.93098  -77.16  5.33171   95.25  2.58744  -90.19
