# MHz S MA R 50
!   freq        S11              S21              S12              S22       
1000.000000  1.66844   29.89  0.60866 -174.78  0.08733 -179.98  0.31400  130.02
1020.000000  0.03818   90.06  0.06261   71.13  0.55890   -2.26  0.02619   98.62
1040.000000  0.30818   71.64  0.65714 -125.83  0.71296 -105.76  0.28790  112.83
1060.000000  0.50469 -124.69  0.37397  -82.77  0.07615 -177.02  0.45810  -74.95
1080.000000  0.12010  160.43  2.82195  -74.15  0.29566 -125.89  0.08395  167.01
1100.000000  0.15554  119.25  5.07725  -24.59  1.44549  -17.44  0.08022  123.73
1120.000000  1.10745 -117.98  3.57930   30.92  0.35334   12.78  0.47499  -98.99
1140.000000  0.98572   99.61  2.29474   41.71  1.85025   43.02  0.80683   91.88
1160.000000  0.37933   89.54  2.46935 -155.13  6.93801   18.66  0.32167   74.51
1180.000000  0.56270   53.17  1.26254   -8.35  0.90826  -17.21  1.01233   96.99
1200.000000  0.97338  128.44  0.60905   65.63  1.74646  103.33  0.81284   83.92
1220.000000  0.32590   68.42 195.47191  -34.44  0.44969   50.51  0.14404   90.07
1240.000000  1.01235 -119.71  0.89955 -139.22  1.15054  -69.02  2.84355  -99.05
1260.000000  0.54946  -77.88  1.04480    0.54  0.82271  -95.33  0.49195  -98.78
1280.000000  0.64727  -55.42  0.28992  -38.32  6.94543  -81.92  0.90886  -87.99
1300.000000  3.56444  124.88  0.57927  154.82  0.54145  115.17  0.50104  -59.59
1320.000000  1.54481  106.45 10.86520  -88.45  2.68245  -54.54  0.72883  141.65
1340.000000  1.13486  117.78  0.35983   56.26  0.59025  -58.87  0.23063   96.05
1360.000000  0.19776 -142.75  0.79353  -55.73  6.07869  139.44  0.39100 -125.62
1380.000000  1.13137  -20.95  0.34053   91.58  1.34471 -131.46  0.86884  116.04
1400.000000  1.38059  -81.37  1.10564   28.36  3.83593  157.17  0.86832  -94.24
1420.000000  0.20109   95.14  8.21947 -137.38  1.37131   15.12  0.13111  137.39
1440.000000  0.93400   86.36 205.11703 -164.73  3.75848 -102.91  1.02327   85.30
1460.000000  0.32133  -50.49  0.75244  -40.73  1.28845  -95.18  0.68725   71.06
1480.000000  0.33003  -55.57  1.46486  144.33  1.77296  145.07  0.39243  -63.99
1500.000000  1.14734  -79.48 22.69559    2.23  0.83955  -93.63  1.00574  -58.85
1520.000000  0.32221   75.44  1.65206 -172.46 28.28775 -168.73  1.17669   80.43
1540.000000  0.52878  -73.44  1.10388   66.50  2.46032   54.22  0.36252 -167.51
1560.000000  1.19180   67.35  2.07162   72.57 158.99236   97.71  1.48883   73.78
1580.000000  0.91556  -83.64  7.90685  -29.31  1.63497  -78.15  1.07414  -86.98
1600.000000  0.30376 -129.50  0.91681   81.39  0.72869 -122.37  0.40515  -60.29
1620.000000  1.11838   92.02 216.58977  -78.18  2.34174  174.88  1.68297   29.67
1640.000000  0.79156  122.27  2.23669  -61.32  0.77886  113.22  0.88823   25.95
1660.000000  0.42247 -114.27  2.69167   19.25  0.56244  -15.85  0.07913   56.53
1680.000000  2.05541  161.26  0.96597   95.86  1.33072 -149.94  0.65468  114.05
1700.000000  0.24355   73.56  1.98698   47.61 15.80184   42.72  0.24083  112.19
1720.000000  0.72630  -51.72  0.62347  159.17 223.54508   38.46  9.07419  -97.10
1740.000000  3.55708   -2.38  1.07291  168.51  0.55389  119.09  0.29992  -52.38
1760.000000  1.19766  -97.54  1.78495    6.22  2.56472  137.04  0.81916  -79.87
1780.000000  2.97697   61.95 14.51792   23.99 262.92357 -115.77  2.65156   58.71
1800.000000  0.96426   69.58 366.32506 -140.96  0.90249  -62.01  0.56592  107.64
1820.000000  0.39161   67.00 228.91191  -15.20  1.17050   98.61  0.24392   54.00
1840.000000  2.12479  -61.38 180.36853  -65.06  2.03824  -38.53  5.56213  -62.79
1860.000000  1.20450   71.23  4.30912  -42.46  4.64177  135.01  1.13458   57.76
1880.000000  0.52405 -115.02  0.95168   13.83 202.48232 -127.27  0.91494  -97.08
1900.000000  0.61957   77.19  1.20786   84.89  1.18594   90.12  1.47995   57.10
1920.000000  0.90720 -159.99  0.85687  -70.60  1.18749  -33.90  1.19833  -76.87
1940.000000  0.45864  123.88  2.10315  -15.25  1.18466   -6.43  0.21060  129.53
1960.000000  1.32494  113.30  9.08810   -5.54 254.72753  -62.95  1.24864  109.44
1980.000000  0.88844  -74.85  1.68583  164.37  2.85449  -13.47  1.52413 -138.03
2000.000000  0.51341   80.73  0.98839 -106.43  1.79160  -93.22  1.15818   69.34
2020.000000  0.32969   29.43  2.18953  118.11  0.92270  -35.72  1.60507  150.35
2040.000000  0.42472  118.55  0.83774  134.13 13.07161   50.89  0.95519   79.35
2060.000000  0.59445  -56.26  0.76684  -35.32  1.90041  -73.25  0.27679  -69.20
2080.000000  1.55489   -9.27  1.87868  126.72 377.30490   13.85  3.86252   37.07
2100.000000  1.11228   90.22  5.17163   -4.23 283.70671   86.10  1.07946   77.51
2120.000000  0.74886  -80.93  6.42725  -45.20  9.84996   -2.99  0.71839  -64.70
2140.000000  0.97455  -71.09 11.45794   83.15  4.08819 -122.41  0.87567  -77.88
2160.000000  1.04652   43.50  4.64965 -102.10  0.80914  141.29  4.24301  145.07
2180.000000  4.77638   66.33  6.39462   63.30 12.54195 -115.83  2.91339   78.23
2200.000000  0.61400   92.16  1.47349  -33.91  1.51176  141.80  1.11637  127.76
2220.000000  0.96255  -93.85  1.41775   86.81 17.01294 -177.65  1.42681 -118.11
2240.000000  0.15931  -78.59  1.75685   47.27  2.10951  -14.01  0.80643 -143.92
2260.000000  2.83419 -137.54  6.04921   91.57  5.96149   91.59  2.47928 -138.74
2280.000000  0.81364  104.13 34.64506  117.41  9.94709  -75.36  0.93305  103.61
2300.000000  0.24062  -91.77  4.58747  122.13  5.05112  -68.94  0.35012  -81.70
2320.000000  0.52916   89.42  5.10514  -69.79 21.97899 -145.12  1.08922   70.36
2340.000000  1.19622   93.78  4.03960 -106.01  3.31098  107.62  1.36607   50.49
2360.000000  1.35365  100.41  3.85561  -28.28  8.48897 -165.48  0.95577   59.92
2380.000000  2.07142 -113.78  3.71333  -85.67  7.82809  -30.31  0.98992   67.08
2400.000000  1.36214   48.32  8.03125  -50.61  3.19290  -11.74  2.57496   96.14
2420.000000  1.83412   34.27  3.74213   35.12  4.04171  178.51  1.89325  -42.70
2440.000000  0.06956 -154.09  2.75207  119.22  5.25745  179.33  0.32850  -91.36
2460.000000  1.56226  139.70  4.98785  122.72  6.26523  -87.54  1.40069 -179.08
2480.000000  0.25264 -113.72  2.57254 -175.88  1.56800 -173.65  0.29953  -90.65
2500.000000  0.38327  165.18 10.58349  -90.44  3.45540  -70.86  0.40935  178.70
2520.000000  0.43008  153.82  2.57040 -148.88  6.28985   16.82  0.80230  136.82
2540.000000  0.28959  144.41  3.57027   16.65  1.26727   28.25  0.15494  162.54
2560.000000  1.16280  134.37  1.97868 -164.71  4.85485  -63.52  2.00597  161.81
2580.000000  0.43955   74.81  6.15983  -71.51 479.52195   53.19  0.50966   84.77
2600.000000  0.67209  131.30  1.65475  116.03  6.38681  142.33  0.79102  123.23
2620.000000  1.19282   88.77  4.48014 -162.76  4.25718  165.41  7.39216  -21.11
2640.000000  0.58507   -3.72  2.37960   27.53  1.74915   15.50  0.72914    5.98
2660.000000  0.39206  -24.34 457.77608  155.87  1.82400 -123.62  0.39950  -71.13
2680.000000  0.08399   42.32  1.98978 -161.38  2.78750  147.35  0.33386  -27.56
2700.000000  1.15345   85.94 538.68008   50.74 512.99348    9.84  1.15454   85.71
2720.000000  2.97684  -28.92  1.29189 -145.43  3.84813 -141.87  0.75487   59.23
2740.000000  3.03916   32.80  7.92110   89.81 15.85610  -69.58  6.10056  -74.88
2760.000000  1.12450  176.19 17.53066 -172.29 15.65587   43.94  1.24209  176.13
2780.000000  0.21121  103.86  2.38169  -54.30  6.41052  105.40  0.45799  129.56
2800.000000  1.24561  147.32 17.19641  -34.95 11.58810  -51.56  1.50790  143.91
2820.000000  0.49355  137.48 17.39475  -54.97  1.58584  147.91  0.26462 -171.59
2840.000000  3.56295  -50.23  9.12438 -138.40  4.51547   24.75  0.46559   57.39
2860.000000  1.03617  159.99  3.64137 -126.64  3.37381  -97.28  3.59527   79.98
2880.000000  0.13843  100.63  3.65787  115.39  9.53378   58.93  0.23248   58.23
2900.000000  1.34906   56.53  3.97960 -149.47  4.07300 -159.22  1.10730   65.15
2920.000000  0.46751  -30.57 22.64067   -7.34  7.10794  -54.23  0.50313  -27.40
2940.000000  0.83508    3.19 22.55921   10.91  6.93536 -154.31  0.81903    4.63
2960.000000  0.34234   50.14 13.69517 -156.48  2.83567   -7.37  0.29279   30.35
2980.000000  1.95367  102.44  4.24813  127.50  4.62369  -21.70  1.23087   98.61
3000.000000  2.61730  -63.34  9.27535  -87.88 11.60443 -132.19  2.64810  -65.25
