# MHz S MA R 50
!   freq        S11              S21              S12              S22       
1000.000000  0.43135   56.11  0.64349 -175.01 28.42323   85.05  0.58403   84.36
1020.000000  0.04171   85.89 322.08408   77.66  3.45364  173.33  0.04832   80.45
1040.000000  0.32590   98.67  4.95354   53.27  0.72785 -114.47  0.29498   84.64
1060.000000  0.56955  -96.75 161.33045   -7.34  0.24346  -77.23  0.30798  -67.66
1080.000000  0.07714  156.25  0.65507   41.56  0.11809  144.83  0.02294  -21.87
1100.000000  0.07551  149.98  1.80369  -40.05  6.84615  -36.50  0.08321  150.31
1120.000000  0.90578  -96.92 400.30712  -55.57  1.35241 -152.32  0.73197  -96.82
1140.000000  1.01329   92.55 284.81873  110.69  1.49334   11.19  1.08477  129.07
1160.000000  0.13610   51.12  0.10484   87.81  0.22748   48.07  0.89217   17.08
1180.000000  0.80154   80.30  2.32395   16.61  0.45330 -133.72  0.86720   68.81
1200.000000  5.50777   66.54  0.35331  139.86  2.30543  -48.99  0.98770   75.41
1220.000000  0.30646   85.26  0.63539 -169.72  1.06381   54.96  0.38746   54.49
1240.000000  0.80549  -61.33  1.41455  -72.86 79.16775  -30.35  2.11184  -76.96
1260.000000  0.61628  -79.60  1.06617  170.61  0.84249  111.07  0.44300  -90.90
1280.000000  0.92184  -78.94 10.49373  -95.11  5.11778   13.46  0.91625  -79.19
1300.000000  3.00194  -83.44  7.87141  -16.47  4.73166   16.96  2.31431  -81.12
1320.000000  0.93416   90.74  0.74754   29.74  0.66877  122.65  0.43610  -16.75
1340.000000  0.62202  159.64  1.75182   79.87  6.46225  112.22  0.44331   98.39
1360.000000  0.16490  -96.54  1.13038  -55.65 379.43127 -115.33  0.25733 -112.78
1380.000000  1.22710  101.57  2.67501   48.05  0.66657  -17.76  0.61181  121.53
1400.000000  0.67138 -113.83  1.15020 -109.63  0.34547  -48.67  0.60401  -65.34
1420.000000  0.19899  100.67  1.58335   59.94  1.50011   68.71  0.16049   80.03
1440.000000  1.80845   33.29  0.89885  167.34  0.78008   64.12  0.73894   85.05
1460.000000  0.84403  115.71  0.58231   52.24  1.38252  -31.19  0.70009  102.04
1480.000000  0.31420  -74.75 16.80839  153.41  0.56433  100.77  0.16952  -26.63
1500.000000  1.22483  -56.57  4.65157 -155.43  3.53940   25.91  1.24716  -71.27
1520.000000  0.75721   62.41  0.91317   52.71  2.35925    4.06  1.47736   78.84
1540.000000  0.81672  -71.58 164.55715   72.03  7.49929 -135.93  0.79025  -61.19
1560.000000  1.43122   53.08  1.06703 -106.51  0.57414 -141.65  0.73299   15.58
1580.000000  1.31916 -176.49  0.69737  -36.81  0.79127 -128.39  0.31540 -156.26
1600.000000  0.78064 -157.00  1.38265 -103.50  1.44703   51.93  0.49940 -121.31
1620.000000  1.61276   91.45  1.52882  131.05  1.58135   34.44  0.64636   79.07
1640.000000  0.78105  121.31  1.29748 -164.39  0.85402   75.95  0.55184  152.20
1660.000000  0.60120 -158.83  0.41006  -70.32  1.68103   82.13  1.07222  172.24
1680.000000  1.09002   59.49  2.43709 -132.73  3.08286 -159.93  1.25208   92.24
1700.000000  0.20737  101.28  4.53088 -137.16  1.53835   60.33  0.17312  111.94
1720.000000  4.86050 -113.89  2.62451  -35.20 211.61462   77.66  8.56627  -97.71
1740.000000  2.16358   52.46  0.89662  138.64 13.33717   44.90  0.82754   86.20
1760.000000  1.31620 -156.53  0.52871 -169.88  7.09036 -124.42  1.10491  -71.72
1780.000000  1.73342   36.74  2.88119   37.79  2.32083  -19.57  1.29842   -7.85
1800.000000  1.04148   67.35  6.31275 -135.11  1.37854   70.05  0.34168  156.25
1820.000000  0.37662   67.00  6.68758  -95.79  1.14127  -68.28  0.26825   80.58
1840.000000  5.34110 -117.02  1.65968   30.50  1.38337  154.17  2.11911   66.66
1860.000000  2.96678  131.62  1.12541    5.54  2.16176   57.98  0.64315   61.87
1880.000000  0.88694   -4.09  2.04634 -152.94  2.96233  138.36  0.91507  -85.49
1900.000000  0.39809   27.87  0.56257  122.37  0.67472  122.28  0.78881  155.53
1920.000000  1.04403 -109.32  2.25884  -76.85  0.52916  -33.77  0.29252 -123.80
1940.000000  0.10201  144.86  0.71241  -47.78  4.03289  -94.67  0.32237  129.00
1960.000000  2.21902  117.70  2.37209   -6.63 20.65525   72.79  1.24286  106.78
1980.000000  0.83086 -103.11  1.95556 -162.77  1.13865   17.59  1.54586  -61.11
2000.000000  2.00515   64.65  1.33517   69.16  3.71383  138.17  0.64731  106.24
2020.000000  2.24047 -138.52  2.76572  -53.72  1.04363  121.24 17.83124   88.84
2040.000000  0.71390   64.66  3.44876  135.90  2.99561  -58.83  1.12479   99.34
2060.000000  0.46545 -119.83  1.31879   -3.52  0.98864  -59.70  0.54767  165.40
2080.000000  0.75797  169.51  1.09817  107.05  6.49695   53.35  4.57884   11.02
2100.000000  1.68135   61.19  3.16501 -163.70  3.73727  164.17  0.38617   81.80
2120.000000  0.77886  -80.88  4.96451  165.91  9.65626 -179.40  0.77803  -57.05
2140.000000  0.77587  -59.77  5.00725 -120.88 516.91535   19.19  0.86842  -71.10
2160.000000  1.42328   70.04  3.54806  107.42  1.97326  144.70  0.70696   62.76
2180.000000  3.30995   82.84 345.92644  -52.98  2.82444   20.93  2.15459   64.50
2200.000000  0.47630  102.43  0.71430  -19.04  2.31756   14.99  1.46373  125.82
2220.000000  3.00790 -131.05  1.92711   42.35  1.92300   52.51  0.75002 -134.63
2240.000000  0.09602   36.85  2.02375   87.11  5.99554 -136.76  0.31470 -117.57
2260.000000  1.65715 -152.99  2.11579   67.64  2.67996 -102.87  2.43280  154.96
2280.000000  0.71101  109.73 12.06864 -177.67  3.11399  155.01  0.56963  121.84
2300.000000  0.04077  -23.28  1.05543  117.52  3.33095  134.32  0.35028  -83.84
2320.000000  1.00732   73.37 32.41572   30.44  4.17810  -78.88  0.98640   42.24
2340.000000  1.38150   72.57  4.71261 -120.11  1.68451 -125.22  0.96752  176.79
2360.000000  1.19305   96.09  2.32446  149.37  3.08838 -159.69  1.28695  110.41
2380.000000  0.93301  132.50  1.88984  128.06  2.65439   65.19  1.16961  146.91
2400.000000  1.81392   51.30  5.69430  -59.33  4.04735   -9.92  1.64687   62.81
2420.000000  2.79008   55.27  4.21513 -138.90  2.60010 -153.01  0.98310   87.35
2440.000000  0.15966  -82.01 33.94573  154.84  1.65667  -22.89  0.35719  -33.71
2460.000000  1.33139  143.01  2.00573  -61.86  2.38343   57.80  1.04594  107.83
2480.000000  0.29809 -116.01 17.45861 -172.87  1.33342 -175.83  0.16165  -65.00
2500.000000  0.44334  134.77  3.16909  159.00 19.71304  154.12  0.37866  165.03
2520.000000  0.66672  134.53 243.07819   51.94  5.89367  176.98  0.58525  129.35
2540.000000  0.26507  158.86  4.87444 -164.69  2.98604   57.23  0.31107  146.17
2560.000000  6.42425  174.17  3.99308  -11.44  4.10708  -23.88  1.72190 -144.03
2580.000000  0.17463  131.87  2.32956  135.75  4.65037  -42.22  0.51744  134.35
2600.000000  0.40383   89.37  1.60578  139.35  6.86311  110.82  0.59409   28.80
2620.000000  0.75165   24.21  2.94578  152.60 436.98874  133.88  3.65108   81.32
2640.000000  0.24123  -30.56  1.08214  -24.07 14.64164 -145.40  0.87562   33.42
2660.000000  0.36117   29.19  3.61845 -116.72  3.15468   71.57  0.30581  -15.82
2680.000000  0.33849 -116.11  2.52100 -173.41  1.48939 -174.50  0.10156  -39.55
2700.000000  0.65683   88.49  8.64182  -32.35  8.60746  145.46  0.93521  112.79
2720.000000  1.23148   61.28 501.39895  116.74  2.00746 -156.76  0.71015   24.40
2740.000000  4.29205   45.49 16.90732  128.45  4.13153  -36.55  9.23602  -75.18
2760.000000  1.47321  172.12  4.25984   55.55 16.60660 -129.66  1.27956  174.46
2780.000000  0.47006  150.60  3.25340  -11.02  5.15147  125.94  0.58668  141.29
2800.000000  1.27344  105.54  2.25368  148.84 918.02199   61.33  1.23491  143.39
2820.000000  0.37859  160.91  5.23824  138.78  3.53021  126.09  0.58889  145.05
2840.000000  4.06815  -91.99 17.97824   44.74 12.50770   70.74  5.27228  -64.43
2860.000000  1.14185  132.33 19.88198   33.71  2.24748 -121.59  0.79657  135.97
2880.000000  0.28817   50.12  6.27644 -100.97  9.81626   88.86  0.22789   64.57
2900.000000  1.71371   31.59  4.97404   43.02 24.76268 -111.11  1.12510   59.52
2920.000000  0.39477  -25.17 22.56232  109.08  5.15428   94.53  0.42030  -34.26
2940.000000  0.82651    3.70 15.38721 -159.76 22.41508 -165.34  0.81782    3.95
2960.000000  0.41466   44.42 12.99744   19.43 45.56551  -17.99  0.35203   39.73
2980.000000  1.48968   84.95 47.27093  175.59 11.62758  -26.27  1.62954   84.84
3000.000000  2.29139  -43.55  4.74268 -102.82  6.09760  -77.23  3.16906  -72.03
